# HZ S RI R 50
100000000 0.15697566533896085 -0.06935096442005714 0.868829493041767 -0.45600409869055814 0 0 0 0
101000000 0.1566993316618447 -0.07359429365973699 0.8664332591355716 -0.45961572303279835 0 0 0 0
102000000 0.15579679474125963 -0.0769444377257009 0.8630292768740878 -0.46403565757908954 0 0 0 0
103000000 0.15574285549097794 -0.08028891813966514 0.8608830805258426 -0.4676628404539613 0 0 0 0
104000000 0.15489413498755528 -0.08446723673219289 0.8588473980808857 -0.47156965674399226 0 0 0 0
105000000 0.1536547388240085 -0.0883142624924939 0.8563054651291604 -0.4761531037476227 0 0 0 0
106000000 0.15355304316926713 -0.09158410306122283 0.8541542782967169 -0.48058642397605866 0 0 0 0
107000000 0.1515395488864933 -0.09555596791637001 0.8509887027237047 -0.4841450038784461 0 0 0 0
108000000 0.15094606576413888 -0.0988753174472741 0.8494893389406285 -0.4881894728957235 0 0 0 0
109000000 0.14963446979001405 -0.1025246264496926 0.8458865264494878 -0.49267564061431507 0 0 0 0
110000000 0.14845506286494592 -0.10589047641802647 0.8438658242162094 -0.49733810101893006 0 0 0 0
111000000 0.14673345739347182 -0.10972539633541613 0.8413435063112739 -0.5005235795579219 0 0 0 0
112000000 0.145400061522973 -0.1135249567873573 0.8379493314378639 -0.5040058131227907 0 0 0 0
113000000 0.1443019074085782 -0.1162989175189687 0.8362265967350744 -0.5090170031606807 0 0 0 0
114000000 0.14250210323591272 -0.1199432126815153 0.8325155825178491 -0.5127890178832366 0 0 0 0
115000000 0.14032518461708632 -0.12377356297113103 0.8303166768241081 -0.5165914251861914 0 0 0 0
116000000 0.13831169396173976 -0.12737619580302145 0.827920864688616 -0.520406131775785 0 0 0 0
117000000 0.13691898235450012 -0.13036622658987426 0.8254599317975176 -0.5243671939306537 0 0 0 0
118000000 0.13448542524833693 -0.13390581126999906 0.8225312608714069 -0.5276535349317446 0 0 0 0
119000000 0.13262924962193628 -0.13750610758466206 0.8205641637432133 -0.5323389664463792 0 0 0 0
120000000 0.13040699453168336 -0.14035521617845167 0.8168080314729214 -0.5363974016017663 0 0 0 0
121000000 0.1281655432819522 -0.14371180323031765 0.8148486556740141 -0.5399900003665894 0 0 0 0
122000000 0.12567032361461966 -0.14687179454662078 0.8116022119229439 -0.5443419807970138 0 0 0 0
123000000 0.12344005594051784 -0.14917709916278304 0.8088677027597563 -0.5475227516986201 0 0 0 0
124000000 0.12066556615433469 -0.15284605351398825 0.8061814329947272 -0.5520949330673385 0 0 0 0
125000000 0.11874128371666937 -0.15586403798908258 0.8043376543999776 -0.555944396739065 0 0 0 0
126000000 0.11569799537942412 -0.15841490273258022 0.7999694130553288 -0.5593124629585012 0 0 0 0
127000000 0.11336344013978407 -0.1615940569574739 0.7987086441395762 -0.5648186835549034 0 0 0 0
128000000 0.1103291118940684 -0.16389342043226343 0.7939829646630789 -0.5672897997375504 0 0 0 0
129000000 0.10820178568946896 -0.16691568289154537 0.7909606672658749 -0.5716768415553061 0 0 0 0
130000000 0.10740663382696178 -0.17016695084329672 0.7884153373304451 -0.5777944466539167 0 0 0 0
131000000 0.10420328076993507 -0.17271149286895998 0.7843848535055268 -0.5782715206521173 0 0 0 0
132000000 0.10115432863997409 -0.17505291381243057 0.7821068733097074 -0.5849372790428282 0 0 0 0
133000000 0.0984304305506424 -0.1781302005806129 0.7775741810154873 -0.5884685147368571 0 0 0 0
134000000 0.09495159290417453 -0.1805136643395211 0.7754002168827382 -0.5914067270873097 0 0 0 0
135000000 0.09139297739305326 -0.1828418905695496 0.7723873274607406 -0.5950232093106372 0 0 0 0
136000000 0.08781359617511045 -0.18473934452198826 0.7699663348732471 -0.5995116704168849 0 0 0 0
137000000 0.08453114612237579 -0.18725940571833227 0.7674599995551824 -0.6018963582897346 0 0 0 0
138000000 0.080670953960733 -0.18922935914058595 0.762969525888601 -0.6064398450162769 0 0 0 0
139000000 0.07717465533268462 -0.19154106861847195 0.7591071221963059 -0.6100556499919948 0 0 0 0
140000000 0.07294888666047084 -0.19307434322119965 0.7562763441742552 -0.61414787597568 0 0 0 0
141000000 0.06913622570648509 -0.19476346854764837 0.7524600107638949 -0.6188384427494147 0 0 0 0
142000000 0.06527846137021345 -0.19629868803655115 0.7489679245433198 -0.6223011995304997 0 0 0 0
143000000 0.061529509330555725 -0.19804012174141475 0.7453283204465733 -0.6254257099815579 0 0 0 0
144000000 0.057511170047166785 -0.19970660044821797 0.7418151006000592 -0.6296745998638661 0 0 0 0
145000000 0.053439308658892196 -0.2007292248570335 0.7393222886403513 -0.6327217834418608 0 0 0 0
146000000 0.049812623091713124 -0.2018942763259464 0.7357488659173151 -0.6364964790909321 0 0 0 0
147000000 0.04586216538207748 -0.2026444179685723 0.7321694656666236 -0.6402571170182197 0 0 0 0
148000000 0.041680183323623984 -0.20344233421466637 0.7296357469885234 -0.6438577988932586 0 0 0 0
149000000 0.03729765226702126 -0.20470696379532932 0.7261200819026008 -0.6467364530368855 0 0 0 0
150000000 0.03307330846915755 -0.20455398507857375 0.7216699863718425 -0.6492000969069344 0 0 0 0
151000000 0.028737863900418933 -0.20515831904697437 0.7177674788524436 -0.6522317643838367 0 0 0 0
152000000 0.024705505692310236 -0.20571655925456014 0.7147236871665851 -0.6559868368930917 0 0 0 0
153000000 0.02071271597582787 -0.20566692423931993 0.7114698711871251 -0.6585759144883988 0 0 0 0
154000000 0.01667310024169456 -0.20620799316470886 0.7090463677079817 -0.6622800033769368 0 0 0 0
155000000 0.012667084141842741 -0.20595064222180987 0.7039898851358376 -0.6648058600881989 0 0 0 0
156000000 0.008536961663146037 -0.20662923938494127 0.7018262546606348 -0.6685625538307906 0 0 0 0
157000000 0.004786848162044386 -0.20617810555423297 0.6977987986763109 -0.6721492466504789 0 0 0 0
158000000 0.0007671742005259787 -0.2059311993958853 0.6952366595888878 -0.6751669923185775 0 0 0 0
159000000 -0.002699742802904101 -0.20584511646104137 0.6920763155084804 -0.6777208504582939 0 0 0 0
160000000 -0.0065395578136946955 -0.20597967642278392 0.6878227936881375 -0.6816060985459352 0 0 0 0
161000000 -0.009689335219223992 -0.205393340903875 0.6849766502602882 -0.6850993156068342 0 0 0 0
162000000 -0.012782135649253294 -0.20550204789993232 0.6816351226911346 -0.6873687525614567 0 0 0 0
163000000 -0.016905140594405933 -0.20566000457440356 0.6783984541451782 -0.6909091873445087 0 0 0 0
164000000 -0.019584417661339462 -0.20515574651357688 0.6752625989533577 -0.6935504377163015 0 0 0 0
165000000 -0.023807020859254388 -0.20513896494660833 0.6717455168381583 -0.6978675302182538 0 0 0 0
166000000 -0.02754647822357692 -0.20399173636462486 0.6694790857003043 -0.7028370039216499 0 0 0 0
167000000 -0.03113162181886907 -0.20282925332972923 0.6652454571361954 -0.7053843810309408 0 0 0 0
168000000 -0.03436051500985716 -0.20184959300461983 0.6618158295022066 -0.7079206635305276 0 0 0 0
169000000 -0.03767865090327242 -0.2010258531903484 0.6584458485906269 -0.7115871058685714 0 0 0 0
170000000 -0.04117478592307784 -0.19992332042514394 0.6548609533226296 -0.7133879199169029 0 0 0 0
171000000 -0.045172757650041404 -0.19877186128502616 0.6518503407255404 -0.7174837481338195 0 0 0 0
172000000 -0.04831594524793595 -0.1970447137456978 0.647585474314188 -0.7199995227423167 0 0 0 0
173000000 -0.05162690574088929 -0.19629724891887845 0.6444507282171577 -0.7237438421210086 0 0 0 0
174000000 -0.05518542788068958 -0.19502850121357737 0.6407496071737102 -0.7264529794266027 0 0 0 0
175000000 -0.05811534725028227 -0.19344326316873134 0.6369794967990918 -0.7311637998665906 0 0 0 0
176000000 -0.061235531803673936 -0.19197785351698202 0.6336719278683641 -0.7339597012331853 0 0 0 0
177000000 -0.06460443656781532 -0.1899704369853665 0.6297052459423467 -0.7368449345339554 0 0 0 0
178000000 -0.06782288243422997 -0.1886735304274053 0.6263207630193006 -0.7400825834943496 0 0 0 0
179000000 -0.07111725961675752 -0.18690307316957966 0.6228752311439236 -0.7432645531671742 0 0 0 0
180000000 -0.07404933401594156 -0.18452672821248264 0.6181760084359402 -0.7479370957717411 0 0 0 0
181000000 -0.07737016667914835 -0.18322084357247156 0.6143132629188893 -0.7502459158627747 0 0 0 0
182000000 -0.08013956186523226 -0.18075464342720057 0.6103456639971472 -0.7518932718967654 0 0 0 0
183000000 -0.08328341943646642 -0.17905399924941443 0.607702273686234 -0.7566757564906955 0 0 0 0
184000000 -0.08613605890538018 -0.17723563404999396 0.6029322841948551 -0.759750518285138 0 0 0 0
185000000 -0.08856580374314028 -0.17491040527809218 0.5994976417045391 -0.7628064369826786 0 0 0 0
186000000 -0.09108778384324406 -0.1731110367151978 0.5951991698699208 -0.7653714930039226 0 0 0 0
187000000 -0.09406340231776752 -0.1706086378340831 0.5909350314511967 -0.7686431804670674 0 0 0 0
188000000 -0.0963141707664261 -0.168711800189835 0.5870844761385089 -0.7722351364688224 0 0 0 0
189000000 -0.09913386542066471 -0.16653531626892415 0.5829896808409019 -0.7750091547739272 0 0 0 0
190000000 -0.10161582588854132 -0.1643433078169389 0.5786112570628346 -0.7777918128824812 0 0 0 0
191000000 -0.10394926734985374 -0.16124110058530045 0.5747430205043931 -0.7808214780181328 0 0 0 0
192000000 -0.10579799455996854 -0.15901361680995912 0.5691613390966699 -0.7829435524803775 0 0 0 0
193000000 -0.10847906105707933 -0.1564265251879454 0.5658603479450014 -0.7871400964501462 0 0 0 0
194000000 -0.1108303772258233 -0.15376410260123588 0.5615264488108102 -0.7896242164759244 0 0 0 0
195000000 -0.11279715093053488 -0.1515251871779005 0.5568789591465976 -0.79192255491434 0 0 0 0
196000000 -0.11494448355990518 -0.1491376096856153 0.5537553935106975 -0.7955861654786762 0 0 0 0
197000000 -0.11725843848634755 -0.14605340184219534 0.5487016451174003 -0.7985585304545961 0 0 0 0
198000000 -0.1188335061956208 -0.14335526250811054 0.5450773739114867 -0.8012121083044863 0 0 0 0
199000000 -0.12044331140544963 -0.14070508022544992 0.5398011584820988 -0.8032198510251265 0 0 0 0
200000000 -0.12304103670144922 -0.13812910478065776 0.5352645465830388 -0.8068149936338591 0 0 0 0
201000000 -0.1246053788619492 -0.13491076748216546 0.5311040981981646 -0.8086773501463221 0 0 0 0
202000000 -0.12622558996027314 -0.13238018805243174 0.5277387158034591 -0.8115057869135263 0 0 0 0
203000000 -0.12759977919711615 -0.1292553279704634 0.5216353797753898 -0.814847276383265 0 0 0 0
204000000 -0.12897312463430172 -0.12645595071439542 0.5186451313598748 -0.816098769543607 0 0 0 0
205000000 -0.13032580584447057 -0.12366900772365834 0.5128927595789988 -0.820115815138978 0 0 0 0
206000000 -0.13202500404416434 -0.12069037458488391 0.5092293072313474 -0.8217193614032391 0 0 0 0
207000000 -0.13317165739976414 -0.11703296993794628 0.5041683978713656 -0.8233235605595264 0 0 0 0
208000000 -0.13420028973200576 -0.11517476082225259 0.500440219100986 -0.8263879552041804 0 0 0 0
209000000 -0.13524173915611748 -0.11205547345335114 0.4957986660891045 -0.8292172255251077 0 0 0 0
210000000 -0.1361352609331166 -0.10928883035795242 0.4908265431734902 -0.8309603458324831 0 0 0 0
211000000 -0.13705536396946508 -0.10578159111508685 0.4861895551044461 -0.8340347254755567 0 0 0 0
212000000 -0.1377792315962666 -0.10297011153402359 0.48141509956534656 -0.835785157463145 0 0 0 0
213000000 -0.13903230925682805 -0.09976042779593974 0.47705761822875925 -0.8374658475737797 0 0 0 0
214000000 -0.1397542667523813 -0.09731876306420537 0.47230808426738535 -0.8410721381599028 0 0 0 0
215000000 -0.1397605792517569 -0.09387832649961053 0.4674897786496905 -0.8422811739667807 0 0 0 0
216000000 -0.1406358391763112 -0.09120062459348553 0.4633414792112066 -0.8444630978015175 0 0 0 0
217000000 -0.14050895439231992 -0.08803368397958843 0.4582354915918898 -0.8462084182765656 0 0 0 0
218000000 -0.14108360600828368 -0.08507906684124641 0.45422552421374707 -0.8477310760959372 0 0 0 0
219000000 -0.14121181204160752 -0.08161068559625453 0.4496713842107164 -0.8508987220507475 0 0 0 0
220000000 -0.1416873146202873 -0.0786611150821319 0.44459077051894463 -0.8529673942979428 0 0 0 0
221000000 -0.1417210223498001 -0.0759290582432422 0.4396359687470899 -0.8537376556233139 0 0 0 0
222000000 -0.14124931549825165 -0.072880436388993 0.4359861216013937 -0.8546920573190004 0 0 0 0
223000000 -0.14192830821453967 -0.07004526172132224 0.4311091202548562 -0.858172515772862 0 0 0 0
224000000 -0.14160953125667441 -0.06694109953755793 0.42606865337371763 -0.8599815918885951 0 0 0 0
225000000 -0.14065468841052772 -0.06446929002177934 0.42241427410077903 -0.861878903867823 0 0 0 0
226000000 -0.14101224118216724 -0.061621317943578516 0.4176129314456327 -0.8632596917710283 0 0 0 0
227000000 -0.1401995116495103 -0.05879665729670731 0.41302606429217187 -0.8653454943898414 0 0 0 0
228000000 -0.1393174016362285 -0.05607253211093843 0.4083196519343643 -0.865724418315734 0 0 0 0
229000000 -0.1396874226893542 -0.05298954788360183 0.4038849147810636 -0.8692752894666025 0 0 0 0
230000000 -0.13908304499730242 -0.05041980403862731 0.3988737531838179 -0.8715748320998239 0 0 0 0
231000000 -0.13821480181599638 -0.0475566791397443 0.39440008926108244 -0.8720790453486521 0 0 0 0
232000000 -0.1370866295891811 -0.04479323627440102 0.3880464073542323 -0.8726982679178819 0 0 0 0
233000000 -0.13720913970756043 -0.04252118382486395 0.38430364551324336 -0.8752359942383167 0 0 0 0
234000000 -0.13581333559980735 -0.03995510878572006 0.38044860035698186 -0.8770110772282782 0 0 0 0
235000000 -0.13460215398438177 -0.03757436743806655 0.37568614892833235 -0.8773380396261425 0 0 0 0
236000000 -0.13403273733894283 -0.0345316273064489 0.3716704797398087 -0.8799135548634359 0 0 0 0
237000000 -0.13278718549569588 -0.03210926030607202 0.36703591752496556 -0.8815062035894303 0 0 0 0
238000000 -0.13147066577737038 -0.03014618147394974 0.3618090486625335 -0.8829932064353364 0 0 0 0
239000000 -0.12985574246780648 -0.027575979424559156 0.357754625636967 -0.8838870630778897 0 0 0 0
240000000 -0.12882896318876094 -0.025760628078130766 0.35395112518079624 -0.8859458852438242 0 0 0 0
241000000 -0.12749207739577884 -0.023105017166641498 0.34938281681449634 -0.8869039003171679 0 0 0 0
242000000 -0.12607660345735536 -0.02132019583496518 0.3439780984728055 -0.8895475049644191 0 0 0 0
243000000 -0.12454725587381836 -0.01907929306111384 0.3399883356059531 -0.8902243406517713 0 0 0 0
244000000 -0.12318447610830473 -0.016862500331076048 0.33537664225535396 -0.8920126645540745 0 0 0 0
245000000 -0.12165511257482264 -0.015044852423790667 0.3310671081052424 -0.8928188641752633 0 0 0 0
246000000 -0.12039397235809655 -0.013605803601945674 0.3264547479600652 -0.8947049574475814 0 0 0 0
247000000 -0.11822866971249188 -0.011181377637910325 0.32165887898603573 -0.8959762951398452 0 0 0 0
248000000 -0.11646394663205868 -0.009314034934030355 0.31699981164024094 -0.8965641503569814 0 0 0 0
249000000 -0.1147976780965774 -0.007120065009195727 0.31248792065726294 -0.8988645085687681 0 0 0 0
250000000 -0.11295895520501903 -0.005965332493745216 0.30927159543538696 -0.900146314366977 0 0 0 0
251000000 -0.11179077281679409 -0.0040926684034976474 0.30306340589602726 -0.9014218944340822 0 0 0 0
252000000 -0.10962962217923598 -0.002369174707333922 0.29871133853783177 -0.9031735811931167 0 0 0 0
253000000 -0.10734675507638035 -0.0016236648471611454 0.2956244878341042 -0.9039755570229948 0 0 0 0
254000000 -0.10557346316794668 0.0005568207698003449 0.2896912677220834 -0.9057786363434768 0 0 0 0
255000000 -0.1035609651335734 0.0012692809436402083 0.28550629227962315 -0.907587299126484 0 0 0 0
256000000 -0.10177438172542198 0.002714497442353042 0.28091090208329805 -0.9070624953750548 0 0 0 0
257000000 -0.09957273694321443 0.0033268636171107173 0.2767802536966832 -0.9087702506027141 0 0 0 0
258000000 -0.0982688240592231 0.00449238180903374 0.2714726843837013 -0.9115691464093713 0 0 0 0
259000000 -0.09578474201171278 0.005688910100271074 0.2677611708217081 -0.9117590283564792 0 0 0 0
260000000 -0.0933430446271373 0.006807110996578932 0.2625391909503987 -0.9132359432498847 0 0 0 0
261000000 -0.09132899876350697 0.007192911254038529 0.2574988442654083 -0.9154309402246714 0 0 0 0
262000000 -0.08963973307070304 0.008306372172604007 0.25289074213473856 -0.9164840684013018 0 0 0 0
263000000 -0.08738892629613722 0.009289175859198253 0.2476373359841521 -0.9185525747318032 0 0 0 0
264000000 -0.08494818008165621 0.009632211677790187 0.24339695174867618 -0.9193125512896804 0 0 0 0
265000000 -0.08355396591638498 0.010511527354987699 0.23801315572141327 -0.9205354919968359 0 0 0 0
266000000 -0.08095573941622734 0.010828603892475662 0.2344042319722444 -0.9222274902451996 0 0 0 0
267000000 -0.07892046403987134 0.011218222813343373 0.2292993438556497 -0.923308991776523 0 0 0 0
268000000 -0.07716816792935659 0.011382686282671778 0.2230666794389266 -0.9245130709484609 0 0 0 0
269000000 -0.07468630820169127 0.011778774530838794 0.22016355328485537 -0.9263434198788528 0 0 0 0
270000000 -0.07278910827689825 0.012290866529021123 0.215079698290359 -0.9271350004623634 0 0 0 0
271000000 -0.07061405933958406 0.012212067768535494 0.21048695614040455 -0.9291673780582245 0 0 0 0
272000000 -0.06829616030659627 0.011871402100339379 0.2065094753775471 -0.9304206045398076 0 0 0 0
273000000 -0.06693191285390866 0.011957626839910184 0.20011545709018028 -0.9311490654554835 0 0 0 0
274000000 -0.06453257538323226 0.012153510030282269 0.19458107909202124 -0.9324563617781819 0 0 0 0
275000000 -0.06283101129935363 0.012059810849842138 0.1897002089327336 -0.934327810263887 0 0 0 0
276000000 -0.0605831809183884 0.011851864529912519 0.1854695866808114 -0.9358065370044071 0 0 0 0
277000000 -0.059048363958727715 0.011049424993546265 0.18113307471619847 -0.936502355199409 0 0 0 0
278000000 -0.05667901208091922 0.011046971792342946 0.17541816153094567 -0.9380087676244577 0 0 0 0
279000000 -0.05471651456560526 0.010628721999066431 0.16968755589392223 -0.9386974529822967 0 0 0 0
280000000 -0.052804239889331014 0.009652997004418159 0.16541262377598356 -0.9402341147344879 0 0 0 0
281000000 -0.05118213254103952 0.009509418089540329 0.15953852203608787 -0.9406566286049759 0 0 0 0
282000000 -0.04948344772385677 0.008505825001315283 0.15408370967647256 -0.9421522902568376 0 0 0 0
283000000 -0.04773641198359158 0.007991914561304972 0.1487915704736711 -0.9439924255043546 0 0 0 0
284000000 -0.045851564249542405 0.007112277583189034 0.14459533782049308 -0.9447037052453546 0 0 0 0
285000000 -0.044705351701286145 0.006179747005238105 0.1391446558441591 -0.946253521427918 0 0 0 0
286000000 -0.0428032323851772 0.005783804321788097 0.13323511267985777 -0.9463493860394443 0 0 0 0
287000000 -0.041627682123929435 0.004415687069215184 0.12708465952050724 -0.9480448697395761 0 0 0 0
288000000 -0.03952683805294783 0.0035692756245531694 0.12244190972027016 -0.9488900574725445 0 0 0 0
289000000 -0.03797347814763295 0.0024651347287791563 0.11667126822160136 -0.9498960420744119 0 0 0 0
290000000 -0.036704347119182544 0.0012583178341994516 0.11135814187085777 -0.9512381732180188 0 0 0 0
291000000 -0.03545864843077545 4.0444703619305176e-05 0.10673594982950606 -0.951602458858286 0 0 0 0
292000000 -0.03430178345827819 -0.0012929792187173406 0.10038103442511621 -0.9523102936112539 0 0 0 0
293000000 -0.03316043797959659 -0.0021286429904544112 0.09561191396425069 -0.9530629893592313 0 0 0 0
294000000 -0.03179732513421879 -0.004163926718336566 0.09014061331050897 -0.9546296538499037 0 0 0 0
295000000 -0.030736056864563936 -0.005136028687336155 0.0832144311127087 -0.9544129636576224 0 0 0 0
296000000 -0.029908297927194582 -0.006400797240655228 0.07785138522703013 -0.9563196352475853 0 0 0 0
297000000 -0.028423611399034533 -0.007889625971125398 0.0716361342699978 -0.9561391637452382 0 0 0 0
298000000 -0.027767198405698426 -0.009486695501530513 0.06562928508788969 -0.9573283200011946 0 0 0 0
299000000 -0.027135970848294846 -0.010817743153723771 0.06058061680802193 -0.9583494730537784 0 0 0 0
300000000 -0.026565440819128868 -0.012135810692425926 0.055607133459820456 -0.9578838484333652 0 0 0 0
301000000 -0.02569470093430192 -0.013919333825487809 0.047886255463164135 -0.9584856005685731 0 0 0 0
