# HZ S RI R 50
100000000 -0.04141931484410514 -0.18521709324451088 0.3662014059903753 -0.8716544409563401 0 0 0 0
101000000 -0.04752334343862696 -0.18478108607483515 0.3547380483393052 -0.8758458146613876 0 0 0 0
102000000 -0.05351465717391633 -0.18459527761807062 0.34294810051752433 -0.8792324334770952 0 0 0 0
103000000 -0.05924431880231495 -0.18280646509531556 0.33221172298441237 -0.882754190175945 0 0 0 0
104000000 -0.06502756150820381 -0.18201384568547446 0.3203783542142112 -0.8858253117034741 0 0 0 0
105000000 -0.07067188385184411 -0.18062524190229057 0.307934349162208 -0.8890977200221545 0 0 0 0
106000000 -0.07587218123328451 -0.17886583214086393 0.29648951466869117 -0.8927456325421956 0 0 0 0
107000000 -0.08204577937858905 -0.17688798578058243 0.2845409883648682 -0.8955454046522268 0 0 0 0
108000000 -0.08727627916072493 -0.17411954418777495 0.27274108723600865 -0.8990280103319848 0 0 0 0
109000000 -0.09276201462060878 -0.17243764053850533 0.2609789358749317 -0.9017502789504676 0 0 0 0
110000000 -0.09789060618859324 -0.1693913770866558 0.24863269378602582 -0.9039713671829055 0 0 0 0
111000000 -0.10334634498557466 -0.1672687438790483 0.2379280033735786 -0.9064384894802787 0 0 0 0
112000000 -0.10828792978567255 -0.16415869150063528 0.22510164099127405 -0.9080141318437227 0 0 0 0
113000000 -0.11268666384339074 -0.15996873936504308 0.21278206570355823 -0.9106014733207287 0 0 0 0
114000000 -0.11829860568043832 -0.15669946092581286 0.20109703221955125 -0.9122070978464483 0 0 0 0
115000000 -0.1230150739915739 -0.15343633640038434 0.1891911858356683 -0.9139458175846483 0 0 0 0
116000000 -0.12759806120438108 -0.1492785045328387 0.17685275877376444 -0.9161633405118699 0 0 0 0
117000000 -0.13121695549877452 -0.14499115920518083 0.16490733241250058 -0.9173475502297759 0 0 0 0
118000000 -0.1362974202701733 -0.14067507508825586 0.15308998255903306 -0.918463080390888 0 0 0 0
119000000 -0.14013957474296485 -0.13672938603492382 0.14070692801659734 -0.9210175203542028 0 0 0 0
120000000 -0.1445736629948817 -0.13184465192503522 0.127984423381727 -0.9198757899594574 0 0 0 0
121000000 -0.14787491697794974 -0.12670069080105534 0.11570300336376967 -0.9222876248054472 0 0 0 0
122000000 -0.15139927788593363 -0.12186721622322717 0.10337357744977084 -0.923010142898126 0 0 0 0
123000000 -0.1549546335490051 -0.11687535135823916 0.09151705314310098 -0.9236128104297069 0 0 0 0
124000000 -0.1578214365532595 -0.11111035308248403 0.07866291162465976 -0.9249297443267157 0 0 0 0
125000000 -0.15960294178604853 -0.10569323752812396 0.06619262558560743 -0.9252482769280378 0 0 0 0
126000000 -0.16296128044586866 -0.09992956646974371 0.05372507896163632 -0.924429796048045 0 0 0 0
127000000 -0.16485961453415443 -0.09410861537612725 0.04162008805412806 -0.9257268346526137 0 0 0 0
128000000 -0.16700964547645428 -0.08821961335013644 0.028893245486914843 -0.9238410174439721 0 0 0 0
129000000 -0.1688607510041055 -0.08241188777995438 0.01595383977560634 -0.9241685256782126 0 0 0 0
130000000 -0.16715652291420988 -0.07664136665730081 0.0026619995494444777 -0.9267003589311388 0 0 0 0
131000000 -0.16887495151067924 -0.07053460587471376 -0.00859113658125151 -0.9243209191888584 0 0 0 0
132000000 -0.16971018933225016 -0.06456957054259878 -0.023753512540643403 -0.9241646263579576 0 0 0 0
133000000 -0.1702890916041542 -0.05848433653730806 -0.03692997809595942 -0.9241216171743531 0 0 0 0
134000000 -0.17057371201923563 -0.052011325995556995 -0.04788789364826869 -0.9220726736293899 0 0 0 0
135000000 -0.17159503689431546 -0.04490396233818021 -0.06018968239051308 -0.9212151230370205 0 0 0 0
136000000 -0.17135811595393272 -0.038617528223083813 -0.07346750475066458 -0.9196348109573872 0 0 0 0
137000000 -0.17067849464373597 -0.03253915940905284 -0.08513646902602817 -0.9194860276771897 0 0 0 0
138000000 -0.16978730863997832 -0.025481212629254252 -0.099327216427192 -0.9162992130136745 0 0 0 0
139000000 -0.16891576555797042 -0.019218122614654658 -0.11252967084590555 -0.9138699280768413 0 0 0 0
140000000 -0.16809830345190124 -0.012225374464576983 -0.1255911709602963 -0.9115226546509285 0 0 0 0
141000000 -0.16615986514361372 -0.005797776652832414 -0.13780616111272923 -0.9063191839238496 0 0 0 0
142000000 -0.16450757574791644 0.00070399932539729 -0.1509243181033807 -0.9044154951619903 0 0 0 0
143000000 -0.1620445581527337 0.007110259054334414 -0.1633691996581618 -0.9020127652668746 0 0 0 0
144000000 -0.1597694420887297 0.01327324041044661 -0.17666884260040164 -0.8990915693870644 0 0 0 0
145000000 -0.15683636783983781 0.01957679945879105 -0.18947077800208784 -0.8972850230780413 0 0 0 0
146000000 -0.15342675580010964 0.025840086211349204 -0.20302475308596485 -0.8930750200833861 0 0 0 0
147000000 -0.15009365137899836 0.03238396898324473 -0.2162343930584336 -0.8907416453939023 0 0 0 0
148000000 -0.14593733946837745 0.038163065304202944 -0.22944351968651838 -0.887089429634487 0 0 0 0
149000000 -0.14166108747800377 0.04357854861401578 -0.24165419139845193 -0.8823477162527211 0 0 0 0
150000000 -0.1377741665885219 0.04985163464167224 -0.2557693497021197 -0.8785273316690799 0 0 0 0
151000000 -0.13326350897567463 0.055428811386695434 -0.2684573939293644 -0.8745425964815109 0 0 0 0
152000000 -0.12804501833915674 0.060604036027151476 -0.2818049834569823 -0.8694954774712699 0 0 0 0
153000000 -0.12270879825462529 0.06639165827746592 -0.2953069000860794 -0.865514205951817 0 0 0 0
154000000 -0.11672971870132648 0.07078094240373983 -0.30785524947188325 -0.8598622212571362 0 0 0 0
155000000 -0.11105227643800147 0.0752752580270474 -0.320972934127166 -0.8542147725792196 0 0 0 0
156000000 -0.10500536126691953 0.07924770694821119 -0.33545591351661036 -0.8493740124967546 0 0 0 0
157000000 -0.09811337286985716 0.08397449605337085 -0.34930416772227146 -0.8431050034438741 0 0 0 0
158000000 -0.09137758916437065 0.08778681692032032 -0.36304686275676074 -0.83766313471766 0 0 0 0
159000000 -0.08430197686983751 0.09100227788359291 -0.37637988948509593 -0.8307169831616515 0 0 0 0
160000000 -0.07691661219450127 0.09340292776423904 -0.3903733874568372 -0.8239116109448611 0 0 0 0
161000000 -0.06881240546372888 0.09639227097276126 -0.40335003781883677 -0.8168667212475744 0 0 0 0
162000000 -0.06113154475980622 0.09820824258964925 -0.41663270450925344 -0.8095315525265311 0 0 0 0
163000000 -0.05288548169876621 0.0997957425378078 -0.4299306518757618 -0.8013685589427928 0 0 0 0
164000000 -0.04421734656849035 0.10131781023150506 -0.4434109887125429 -0.7928478107341934 0 0 0 0
165000000 -0.03561835366648896 0.1025135004130196 -0.4573909223841446 -0.7841458087092011 0 0 0 0
166000000 -0.027765138911593885 0.10358818137768143 -0.4713937055851881 -0.7767080479466446 0 0 0 0
167000000 -0.01951952280483182 0.10426692462271356 -0.48318111383325413 -0.76690739145913 0 0 0 0
168000000 -0.010617359876188871 0.10470604257417358 -0.4961265551178836 -0.7574762581265638 0 0 0 0
169000000 -0.0013436992053344557 0.1044327439086319 -0.509306166073871 -0.7476373837894934 0 0 0 0
170000000 0.006862751957343555 0.10377402305490188 -0.5217817434212185 -0.7379499953601403 0 0 0 0
171000000 0.01510234717391706 0.10297768159798756 -0.5341208768090375 -0.7280768144694317 0 0 0 0
172000000 0.023936209049927278 0.10157871563950824 -0.5460538882561108 -0.7165608601655555 0 0 0 0
173000000 0.03323287566588291 0.09946641469570706 -0.5584639304592175 -0.704815103002044 0 0 0 0
174000000 0.04232073552317199 0.09759051628119994 -0.5693211962836441 -0.693307137020326 0 0 0 0
175000000 0.051135882141136214 0.09514510498284189 -0.5832781669182151 -0.6825128122250025 0 0 0 0
176000000 0.059947060041552175 0.09171520444445067 -0.5938819456382955 -0.670214753903225 0 0 0 0
177000000 0.0687517241724519 0.0882974189918823 -0.6047611048168916 -0.65795080226779 0 0 0 0
178000000 0.0772636444075521 0.08420232022504714 -0.616809580843774 -0.6448374778694427 0 0 0 0
179000000 0.08599539212632017 0.0797205749335818 -0.6273308761154003 -0.6318163667998828 0 0 0 0
180000000 0.09443974639459658 0.07536124076571815 -0.6380096864462531 -0.6186582033146079 0 0 0 0
181000000 0.10266059961794655 0.06955788110332231 -0.6472502826194898 -0.6049873002251296 0 0 0 0
182000000 0.11115960474986458 0.06404092896773775 -0.6570699109357088 -0.5906475639086047 0 0 0 0
183000000 0.11891550468980139 0.057642287513929 -0.668468242301661 -0.5764391576665296 0 0 0 0
184000000 0.12689170922620427 0.05076698111474635 -0.6767522035058449 -0.5629318551839573 0 0 0 0
185000000 0.13469149286749538 0.04423451750137108 -0.6860185163925937 -0.5482898924534695 0 0 0 0
186000000 0.14218065598069327 0.036654750099025274 -0.693650907246875 -0.5326885301835592 0 0 0 0
187000000 0.14931014827761702 0.028285519250668297 -0.7031991169100632 -0.5176855574570657 0 0 0 0
188000000 0.15642077080844952 0.020468428151164588 -0.710771953574679 -0.5016213421170266 0 0 0 0
189000000 0.16293258565905375 0.011904130482091638 -0.7198038773863251 -0.4861538803085756 0 0 0 0
190000000 0.16906135345896717 0.002807207909091055 -0.7268329613248647 -0.4701051473247 0 0 0 0
191000000 0.17520448858479448 -0.006004601588515862 -0.7335058666275435 -0.45368237701574177 0 0 0 0
192000000 0.18094172457012497 -0.01587209640827684 -0.7402740681782449 -0.4379271720737185 0 0 0 0
193000000 0.18617161676899951 -0.02539638113306109 -0.7475320985291929 -0.4203674645720662 0 0 0 0
194000000 0.19096672945291174 -0.03566727167622291 -0.7532147189793887 -0.40393131950499056 0 0 0 0
195000000 0.1954719203440748 -0.04605364719587047 -0.7587518899587598 -0.3869583643679249 0 0 0 0
196000000 0.19975734918547677 -0.05679019629484239 -0.7643466203307678 -0.3703191369844701 0 0 0 0
197000000 0.20278369237916494 -0.06777118887041263 -0.7699675308118648 -0.3524981072492087 0 0 0 0
198000000 0.20674103203017458 -0.07882403058622585 -0.7738172778585364 -0.3351884249778565 0 0 0 0
199000000 0.20935098785142178 -0.09022636730930614 -0.7772165557537563 -0.3175618540606691 0 0 0 0
200000000 0.21114360572179133 -0.10145687906733893 -0.7814730968347975 -0.2987457061558227 0 0 0 0
201000000 0.2129446624982068 -0.11365984529574454 -0.7838037031209514 -0.28136289345543064 0 0 0 0
202000000 0.2143578511553264 -0.1253938343678054 -0.7877276192323984 -0.2640527233177186 0 0 0 0
203000000 0.21542805782163377 -0.1373456495511887 -0.7902805831856622 -0.2441124617279625 0 0 0 0
204000000 0.21618294818271286 -0.148677550407911 -0.7908512571510109 -0.22650558662007783 0 0 0 0
205000000 0.21617839161495098 -0.16093514391922784 -0.7933300890720288 -0.2074221565742062 0 0 0 0
206000000 0.2156730599294436 -0.17329872214897798 -0.794385645726706 -0.18879670144461544 0 0 0 0
207000000 0.21461654958140847 -0.18465895494151824 -0.7931717184581835 -0.17108310049134168 0 0 0 0
208000000 0.21377637486517123 -0.19744696515248514 -0.7945911047002371 -0.15209741560482132 0 0 0 0
209000000 0.21157389242494426 -0.20946972488870752 -0.7934462186863882 -0.13412310872245709 0 0 0 0
210000000 0.2089535599474681 -0.2215036907776041 -0.7926315593045876 -0.11453709794406772 0 0 0 0
211000000 0.2072461588898126 -0.2332821923846575 -0.7907213354350059 -0.09643480348459836 0 0 0 0
212000000 0.20354508730450716 -0.2452791361226998 -0.7893220049918749 -0.07725906544718208 0 0 0 0
213000000 0.19960346058245043 -0.25703905991680737 -0.7868971255803671 -0.05791844586001023 0 0 0 0
214000000 0.1955457365289139 -0.26910484317431954 -0.7840783528347942 -0.039439503255585276 0 0 0 0
215000000 0.19128410870138088 -0.2802835803682642 -0.779998147356574 -0.020401934210445907 0 0 0 0
216000000 0.18652136566962346 -0.29175694573329825 -0.7760561673487145 -0.0024987177810694775 0 0 0 0
217000000 0.18125888953232877 -0.30315017575548114 -0.7720642768774658 0.016935645974247425 0 0 0 0
218000000 0.17542732789007662 -0.3140339090759728 -0.76649549594403 0.03521815983401147 0 0 0 0
219000000 0.16976641057908054 -0.3251840292645321 -0.7611871593205738 0.053156285419802767 0 0 0 0
220000000 0.16300902899905378 -0.33520157225748076 -0.754492949420242 0.07231579795030103 0 0 0 0
221000000 0.15671047534971835 -0.34560920011022706 -0.7474474950825166 0.0899644878320235 0 0 0 0
222000000 0.14970584793452157 -0.35598717024155674 -0.7410298516126298 0.10754290565837203 0 0 0 0
223000000 0.14271306001805475 -0.3659700882415286 -0.732813200719364 0.12552975432603158 0 0 0 0
224000000 0.13494246941428806 -0.37550218514513467 -0.7243857201958709 0.14368604632936768 0 0 0 0
225000000 0.126934064876544 -0.38509687903603107 -0.7164077524922254 0.16078832460295384 0 0 0 0
226000000 0.11846644999294514 -0.39402858130727425 -0.7066349950167277 0.17821636125591306 0 0 0 0
227000000 0.11076089872700073 -0.40350400929179453 -0.6970397330472744 0.1952108642192934 0 0 0 0
228000000 0.10161711149456872 -0.41219024002875854 -0.6862694097587665 0.2117572932352132 0 0 0 0
229000000 0.09269909391465436 -0.4201490628189614 -0.6753267697867829 0.22793256064991638 0 0 0 0
230000000 0.08339953351433896 -0.42965337291796757 -0.6642396240544559 0.24435602415548935 0 0 0 0
231000000 0.07452503990196747 -0.43683645272606053 -0.6527546216740165 0.25975339876748504 0 0 0 0
232000000 0.06526531386244819 -0.44459864394643056 -0.6391808791124272 0.27443553303855234 0 0 0 0
233000000 0.05556860285729998 -0.4520700949866406 -0.626443107599697 0.29033146289570666 0 0 0 0
234000000 0.04591718481602865 -0.459797394074593 -0.6134902712040845 0.3053275289327984 0 0 0 0
235000000 0.03568037214178328 -0.46622736252799796 -0.5994284064075306 0.31935765333952026 0 0 0 0
236000000 0.02608500827776375 -0.47301594623884535 -0.5849576136733201 0.33316111026628 0 0 0 0
237000000 0.015640277325812968 -0.4798934965042628 -0.570363282812671 0.3466459931710737 0 0 0 0
238000000 0.005685468906501143 -0.4857432230952929 -0.555317076601552 0.3593423324563876 0 0 0 0
239000000 -0.004976511889540136 -0.4918376595660143 -0.5391672315850649 0.3724923360026659 0 0 0 0
240000000 -0.01471220394256022 -0.49777739572897217 -0.5237575011235305 0.3844833620593767 0 0 0 0
241000000 -0.02601555270003645 -0.5026244381148124 -0.5060944375496444 0.3956510653323255 0 0 0 0
242000000 -0.03541583607272707 -0.5093809212744066 -0.4898076006342522 0.4065603264248226 0 0 0 0
243000000 -0.04739251517691375 -0.5137468426241516 -0.471108031792756 0.41769691821989524 0 0 0 0
244000000 -0.057532712148959726 -0.5187610169610614 -0.4538014576707528 0.42677553284276093 0 0 0 0
245000000 -0.06843819536591393 -0.5241351844727427 -0.43602421161043614 0.4353643149390174 0 0 0 0
246000000 -0.07992578464533893 -0.5293757259358323 -0.4174407637970869 0.4441829637621561 0 0 0 0
247000000 -0.09046443024060566 -0.5339491081889218 -0.3978999904342129 0.4523401944234168 0 0 0 0
248000000 -0.10217727639098781 -0.5378090933941013 -0.3781556747546562 0.45933356114768786 0 0 0 0
249000000 -0.11342490924405771 -0.5417838942550904 -0.35882756161947116 0.46613602138320337 0 0 0 0
250000000 -0.12468124896352403 -0.5469399619035862 -0.339260062793408 0.4715593119352521 0 0 0 0
251000000 -0.13802178542422716 -0.5506855836802701 -0.3183725497696924 0.47686647935952814 0 0 0 0
252000000 -0.14939984386048993 -0.5541977563664626 -0.2976165357160903 0.4807333261676483 0 0 0 0
253000000 -0.16166632485990598 -0.5576520052011597 -0.277181817704361 0.4836934599228833 0 0 0 0
254000000 -0.1746205676304417 -0.5615086016718918 -0.2559519768713135 0.4861714038112301 0 0 0 0
255000000 -0.18565957862196358 -0.5653993311645918 -0.23500035265943608 0.4872844379667473 0 0 0 0
256000000 -0.19965582650452288 -0.5688583824179513 -0.2140382283231502 0.4873164054334748 0 0 0 0
257000000 -0.2128201748227493 -0.5720862161586167 -0.1930711594929217 0.4868016234605388 0 0 0 0
258000000 -0.22593700951704748 -0.5747945432162068 -0.1716334463462655 0.4853126983999498 0 0 0 0
259000000 -0.23876590545528964 -0.5775814932116018 -0.1513943982396384 0.4818822688011716 0 0 0 0
260000000 -0.2531424703951896 -0.5797783877832143 -0.13042036425721573 0.4788419640683933 0 0 0 0
261000000 -0.26652396850983523 -0.5826248355072287 -0.10948021535949046 0.4741942618617589 0 0 0 0
262000000 -0.2813618615256627 -0.5829355945468928 -0.08909199518613403 0.46842085200474276 0 0 0 0
263000000 -0.2960758522911538 -0.584989607001688 -0.06978384500917453 0.46182444315658444 0 0 0 0
264000000 -0.3115316546873872 -0.5862730385002504 -0.05030734759704206 0.45360458491062783 0 0 0 0
265000000 -0.32595437827767726 -0.5861841536000476 -0.03179798420516477 0.44427497347283934 0 0 0 0
266000000 -0.3411166970448415 -0.5863915679801548 -0.014257771997398052 0.4348289828009839 0 0 0 0
267000000 -0.356819430045425 -0.5868557004151665 0.0032589040404542025 0.4246473275368681 0 0 0 0
268000000 -0.3731332975280072 -0.586155630054812 0.01969013883139329 0.4126367681709117 0 0 0 0
269000000 -0.3887849895855435 -0.584338241955431 0.03529478134010726 0.40072079970836255 0 0 0 0
270000000 -0.40504153992730896 -0.5816366177361328 0.04992400966018236 0.3879366739746737 0 0 0 0
271000000 -0.4212197193394245 -0.5803809969107059 0.06320191768695534 0.3749810037355263 0 0 0 0
272000000 -0.4366188928367802 -0.5768922036614335 0.07555119537023974 0.36082698661712065 0 0 0 0
273000000 -0.45376708549832784 -0.5734477434333423 0.08744884792404574 0.346348103975902 0 0 0 0
274000000 -0.46848355735080205 -0.5691983785671318 0.09766045988531441 0.33137624695941725 0 0 0 0
275000000 -0.48470237540297256 -0.5640253591991012 0.10677123827580812 0.316597184597138 0 0 0 0
276000000 -0.500686818430327 -0.559327713272039 0.11529183270672996 0.3017788666844561 0 0 0 0
277000000 -0.518913865712706 -0.5512688397061867 0.12262453120966021 0.2866007184556577 0 0 0 0
278000000 -0.5322760200371315 -0.5464853543241657 0.12844087087247766 0.271358477128673 0 0 0 0
279000000 -0.5482026164179319 -0.5394591484010685 0.13361945108869705 0.25629039669633585 0 0 0 0
280000000 -0.5629052265558991 -0.5327524346851797 0.13777855816887066 0.2416377868151432 0 0 0 0
281000000 -0.578027006076171 -0.5235521924380463 0.14128403829278785 0.22684542548929962 0 0 0 0
282000000 -0.5932503292584859 -0.5158589975595698 0.14344593426566182 0.21286148941564703 0 0 0 0
283000000 -0.6070508002854577 -0.5071159622610913 0.1449176253587223 0.19920972027028136 0 0 0 0
284000000 -0.6208988983249321 -0.4964170746239018 0.14548996753972238 0.185987429989417 0 0 0 0
285000000 -0.6344698004316941 -0.4873339171933628 0.14558782571337053 0.17270648129405458 0 0 0 0
286000000 -0.6484505022316172 -0.4759200709631814 0.14502378048266984 0.16025884999245898 0 0 0 0
287000000 -0.6606113984059461 -0.4661480182306209 0.14387653689569452 0.14850572416553273 0 0 0 0
288000000 -0.6724635108199601 -0.4551092028954893 0.14200957919113588 0.1371837224863799 0 0 0 0
289000000 -0.6856960130920555 -0.4428565367365089 0.14008830044656506 0.126242019981096 0 0 0 0
290000000 -0.6970251682326515 -0.4314277169803143 0.13770813886256356 0.11600286128018907 0 0 0 0
291000000 -0.7069097573479912 -0.42043163912486486 0.13457391894516407 0.10651634737781288 0 0 0 0
292000000 -0.718029372142864 -0.4084210601386323 0.13139745344967826 0.09741630340190906 0 0 0 0
293000000 -0.7286905319777356 -0.3953403110977923 0.12799510762193714 0.08891015935714011 0 0 0 0
294000000 -0.7383794758931972 -0.3851392249078965 0.1246512697976119 0.08082007741121518 0 0 0 0
295000000 -0.748591766607314 -0.3705292134834811 0.12092634667260979 0.07318003565288138 0 0 0 0
296000000 -0.7571529010451361 -0.3577071020576722 0.11688065127714674 0.06633943779726102 0 0 0 0
297000000 -0.7662837479135939 -0.34605613886824943 0.11298836432376143 0.05994013884530498 0 0 0 0
298000000 -0.7734992418233166 -0.3331716053636822 0.10906101677389594 0.05389161065478992 0 0 0 0
299000000 -0.7821101980080916 -0.31815433904441687 0.10487836856909592 0.04794216919014584 0 0 0 0
300000000 -0.7897715629829699 -0.30613482048897844 0.10087632067127204 0.042951790874351185 0 0 0 0
301000000 -0.7961549502665746 -0.2933028872494641 0.09671662137281165 0.03808856712010529 0 0 0 0
