# HZ S RI R 50
1000000 0.9813036774519911 -0.14186516949855715 0.014913561112442252 0.13793125010433113 0 0 0 0
1500000 0.952811212923936 -0.20715082934553702 0.04944460270706387 0.2016492058853639 0 0 0 0
2000000 0.9264909566094285 -0.26900405670086935 0.07659241139173781 0.25950254404087103 0 0 0 0
2500000 0.8901542027413725 -0.3237933453041568 0.11530141162227744 0.31066167825318386 0 0 0 0
3000000 0.8479606815190044 -0.37069042017130893 0.15795225097472407 0.3527997980216664 0 0 0 0
3500000 0.8048635205615661 -0.41157215719241147 0.20445901555276902 0.3891401145496959 0 0 0 0
4000000 0.75859361999698 -0.444794141329525 0.25208749361930766 0.4172027737688429 0 0 0 0
4500000 0.7123279408312213 -0.4720580459296975 0.29998096225968424 0.43870552255666956 0 0 0 0
5000000 0.6661478281997468 -0.49351588154032183 0.3465175110797079 0.45360917486355545 0 0 0 0
5500000 0.6220151457065481 -0.508673568437087 0.3917143018060287 0.4632510128868069 0 0 0 0
6000000 0.5788555464026485 -0.5197202742520596 0.4344920208383622 0.4680239844279064 0 0 0 0
6500000 0.5381767702309895 -0.5256181400175477 0.4747936180591521 0.4687194194096312 0 0 0 0
7000000 0.499512818677008 -0.5297697351308841 0.5132822951714187 0.46685187585631815 0 0 0 0
7500000 0.4633754490563963 -0.5303129870936419 0.5483502971514025 0.4620245551024702 0 0 0 0
8000000 0.43023303088580506 -0.5290727695988995 0.5813957215822362 0.4554542425876137 0 0 0 0
8500000 0.3992800004298013 -0.5251921791671093 0.6124809702773983 0.44622484198078083 0 0 0 0
9000000 0.3701972746729094 -0.5201443948029589 0.6407470663827866 0.43660723615252944 0 0 0 0
9500000 0.3436608668190773 -0.5138655670124708 0.6659631828116912 0.4260391617131777 0 0 0 0
10000000 0.31908140941603913 -0.5067712748432093 0.6894852922341504 0.4141504685815681 0 0 0 0
10500000 0.29661265989140445 -0.4997843163225631 0.7111868177429823 0.4013197447355886 0 0 0 0
11000000 0.2758710833204014 -0.49110391641368056 0.7311226951204213 0.38933828073601373 0 0 0 0
11500000 0.25655217341906056 -0.48267620040966613 0.7497543142910853 0.3771100044401605 0 0 0 0
12000000 0.2386889471627851 -0.47446464347686934 0.766786834167001 0.36422323847645627 0 0 0 0
12500000 0.2223253519542305 -0.466290801308119 0.7823806819453664 0.3505303432376682 0 0 0 0
13000000 0.20779260304206731 -0.45690051349696137 0.795487184376434 0.3373229266001765 0 0 0 0
13500000 0.19372422558834593 -0.4488614607811907 0.8091671904930644 0.3249158860957994 0 0 0 0
14000000 0.18092370966286245 -0.4402681534034382 0.8212765900515804 0.312412717416874 0 0 0 0
14500000 0.16948820053365882 -0.43225313567971685 0.8317510361427307 0.2992609536550568 0 0 0 0
15000000 0.15884997972061593 -0.42329232177414566 0.8422006898703209 0.28743319235171527 0 0 0 0
15500000 0.14855323288378466 -0.41601752416272386 0.8517567769758856 0.2755281863095247 0 0 0 0
16000000 0.13909911854705445 -0.4082109006173013 0.8599180246445959 0.26335592041398925 0 0 0 0
16500000 0.13075251201326696 -0.4009630265711067 0.8687537952712274 0.25204352934259794 0 0 0 0
17000000 0.1223741991449472 -0.39396661438543484 0.8752426094646891 0.24004989822840933 0 0 0 0
17500000 0.11500903395443739 -0.38632075667958105 0.8823214829505678 0.22863658116510116 0 0 0 0
18000000 0.10785733594227351 -0.37926613291632116 0.8883907707086107 0.21772409253400357 0 0 0 0
18500000 0.10197802606503187 -0.3728903373047666 0.8937707395433369 0.20653627696418278 0 0 0 0
19000000 0.09522505138078785 -0.36614161017012975 0.8998904843180021 0.1965054908242002 0 0 0 0
19500000 0.08977118207117447 -0.3604802316781007 0.9041900058550804 0.18624886376873612 0 0 0 0
20000000 0.08511698003578276 -0.35469330636050034 0.9088925852428252 0.17569350615260318 0 0 0 0
20500000 0.0797967893694108 -0.3485968764983541 0.9135313579128524 0.16647971071229242 0 0 0 0
21000000 0.07541203987703589 -0.34326299167268576 0.9168937588633755 0.15633469782630607 0 0 0 0
21500000 0.07116269856235963 -0.33809908601705324 0.9209446655969269 0.14720987361914792 0 0 0 0
22000000 0.06707776950004687 -0.33271422179114873 0.9242233512932196 0.13754460105753966 0 0 0 0
22500000 0.06326741881700775 -0.3274211938779834 0.9276663110035599 0.12913737483663718 0 0 0 0
23000000 0.059598321513471116 -0.32253376029583647 0.9299550714473279 0.11926971615741583 0 0 0 0
23500000 0.05631767522349081 -0.31793512390280027 0.9325798163703976 0.11132638859813426 0 0 0 0
24000000 0.0534285181583253 -0.31380851075338523 0.9346881090153397 0.10236495674007953 0 0 0 0
24500000 0.0502689388549974 -0.3091640930741276 0.9368689097345313 0.09371741270830736 0 0 0 0
25000000 0.047751850790204206 -0.30544293029850084 0.9391227894677384 0.08565917869354674 0 0 0 0
25500000 0.04460824693254965 -0.3007383442316028 0.9410273979205624 0.07765658817718334 0 0 0 0
26000000 0.04286996485652313 -0.2974137530452438 0.9433801388291196 0.0706505719721647 0 0 0 0
26500000 0.040499513000139334 -0.2933833176964184 0.9444949252606584 0.06233050103310108 0 0 0 0
27000000 0.03812017046938284 -0.2902677677989765 0.9464242348149312 0.05421008681404879 0 0 0 0
27500000 0.03655934011767885 -0.2864244709925356 0.946697182298113 0.04687767996775716 0 0 0 0
28000000 0.03394505439513003 -0.28331567306290206 0.9486703316545042 0.03966863943141305 0 0 0 0
28500000 0.032358350261615744 -0.2808373475979746 0.949898205698148 0.03198853785748645 0 0 0 0
29000000 0.030366779323393534 -0.2775753818012673 0.9507320570505208 0.02525600292251605 0 0 0 0
29500000 0.028952800890966864 -0.27438467370956227 0.9517267096945062 0.018141215595475504 0 0 0 0
30000000 0.027545002424955986 -0.2710112084378292 0.9517079157569402 0.01076133443934319 0 0 0 0
30500000 0.02606333430506996 -0.2688076030264355 0.9530718069206287 0.004297857503636256 0 0 0 0
31000000 0.024477294177855387 -0.2662261619178992 0.9542245402560174 -0.002490127731419902 0 0 0 0
31500000 0.02287809294099627 -0.2632476205343793 0.9539626049729442 -0.009310749193373213 0 0 0 0
32000000 0.022245629280322168 -0.2614331564008886 0.9546175209952528 -0.01580572574445378 0 0 0 0
32500000 0.02080757132704422 -0.25867715499349 0.9549700146683374 -0.02214514167728788 0 0 0 0
33000000 0.019626306156988522 -0.25687979409730005 0.9550588200260745 -0.028904272282675586 0 0 0 0
33500000 0.018504726420954316 -0.2543402103854804 0.9550866308678586 -0.03479356707298895 0 0 0 0
34000000 0.017474424070257892 -0.2523479251065347 0.9559594998277842 -0.04098203369165078 0 0 0 0
34500000 0.0169965499740928 -0.25062356141470166 0.9566134909114152 -0.04733065309306322 0 0 0 0
35000000 0.015629540712239074 -0.24885546441117334 0.9563772806154525 -0.052653029500194626 0 0 0 0
35500000 0.015130935611778192 -0.246992340058911 0.9559267024174417 -0.05954993372822931 0 0 0 0
36000000 0.014394321824162485 -0.245328375013823 0.9557656266189237 -0.06547787240368848 0 0 0 0
36500000 0.013531474020409459 -0.24353129794929226 0.9556245001593902 -0.07108305547425751 0 0 0 0
37000000 0.01246954215905535 -0.24164314573445264 0.9558581893195511 -0.07684445319607218 0 0 0 0
37500000 0.011346277851474086 -0.2401944688510672 0.955140740438206 -0.081646577419866 0 0 0 0
38000000 0.011125888127394986 -0.2387097174200373 0.9560491430720444 -0.08750985233433069 0 0 0 0
38500000 0.010654186127717836 -0.23759295229777588 0.9551323115383139 -0.09369335849507943 0 0 0 0
39000000 0.009684908802374706 -0.23630150135593564 0.9559800280014429 -0.09926914140126791 0 0 0 0
39500000 0.009048188235180136 -0.23538222978355686 0.9540998142941998 -0.10410881439752324 0 0 0 0
40000000 0.008347428247529522 -0.23375897963804398 0.953652841944347 -0.11019023461515638 0 0 0 0
40500000 0.007999835004557237 -0.2324787624405906 0.9543721078790933 -0.11510009957881971 0 0 0 0
41000000 0.007547388952119386 -0.23147119605388358 0.953982759467188 -0.1205927129307793 0 0 0 0
41500000 0.007059300881305066 -0.23074627400706788 0.9534105256796298 -0.12552054078166114 0 0 0 0
42000000 0.006722991340003695 -0.22965810151018692 0.952339441935508 -0.13131842476608777 0 0 0 0
42500000 0.0059008317106007705 -0.22845791978442365 0.9542480717734095 -0.13708457517832015 0 0 0 0
43000000 0.005552035470837098 -0.22724683307490215 0.9508428576637183 -0.14080696102394819 0 0 0 0
43500000 0.005160236637831395 -0.226704547524089 0.9509938825890684 -0.1467181123996946 0 0 0 0
44000000 0.004476267654474088 -0.22565236517574702 0.9496874308392902 -0.15180907527875925 0 0 0 0
44500000 0.004346981487458814 -0.22540127315707786 0.9485092221675646 -0.15656058456435282 0 0 0 0
45000000 0.004096957029685007 -0.2242766749232071 0.9480230989423992 -0.1613628685943917 0 0 0 0
45500000 0.0033854476902388897 -0.22404005537468 0.9477674301038606 -0.16633757218643994 0 0 0 0
46000000 0.0032747640793292366 -0.2231829425664462 0.9466552460463895 -0.17124564064516865 0 0 0 0
46500000 0.0024199179265031834 -0.22321811796746735 0.9468635846073703 -0.17645524222299297 0 0 0 0
47000000 0.002415464294686128 -0.2221779703609999 0.9453517897373089 -0.18098292725047294 0 0 0 0
47500000 0.0018823374118037877 -0.2219005910244521 0.9443375871887066 -0.18516794301497363 0 0 0 0
48000000 0.0018387213415246109 -0.221263788805735 0.9442993606808928 -0.19059510291341758 0 0 0 0
48500000 0.0010338759814104478 -0.22085590351878245 0.943102950833186 -0.19558575808749715 0 0 0 0
49000000 0.0007782098676130642 -0.22019403467600773 0.9424216270877037 -0.19945706603650515 0 0 0 0
49500000 0.0001036233402494126 -0.2204646099322856 0.941386253301703 -0.20502801655838157 0 0 0 0
50000000 0.0003306023653616888 -0.2198603185505068 0.9405557860340227 -0.20838803046944382 0 0 0 0
50500000 -0.0005488222205048145 -0.21951327681826327 0.9397439990673803 -0.21307566330255293 0 0 0 0
51000000 -0.0005427920478819392 -0.21928415165373105 0.9390377006317083 -0.21769978113863783 0 0 0 0
51500000 -0.0011797091651267338 -0.21916104770345288 0.9376192078042258 -0.22299510224273283 0 0 0 0
52000000 -0.001584038951959607 -0.21891375677727368 0.9365078263629646 -0.22699094756932062 0 0 0 0
52500000 -0.0016391878330422281 -0.21843501759943246 0.9353267967233925 -0.231881941498273 0 0 0 0
53000000 -0.0021600387365618497 -0.21840813357463967 0.9342909793628512 -0.2360751259097133 0 0 0 0
53500000 -0.00236007270282144 -0.21818882704042095 0.9333031453750502 -0.2404763837537742 0 0 0 0
54000000 -0.002552519974315428 -0.21816659738269914 0.9324955551875769 -0.2453894755151227 0 0 0 0
54500000 -0.003080383606160796 -0.21825880014028648 0.9311408139707491 -0.24913280689571637 0 0 0 0
55000000 -0.0032534356188645003 -0.21790084249447436 0.9294690380064888 -0.25377948719293386 0 0 0 0
55500000 -0.003967913559589131 -0.21783169106275416 0.9296469192552355 -0.25731763226710946 0 0 0 0
56000000 -0.004225351114571814 -0.21802482998453382 0.9275584767556283 -0.26208900788106754 0 0 0 0
56500000 -0.004761661763132825 -0.2179825126855288 0.9263265753668649 -0.26601698753444936 0 0 0 0
57000000 -0.005078463007309833 -0.21862946353201693 0.925327848346207 -0.2708491807558474 0 0 0 0
57500000 -0.005244722038595194 -0.218736967181254 0.9245326915646424 -0.2741790376164921 0 0 0 0
58000000 -0.0054018611801703535 -0.21868419338453196 0.9228199802490351 -0.27913495627407126 0 0 0 0
58500000 -0.006230500963192328 -0.2186714847903301 0.9213473473034198 -0.28384076642116474 0 0 0 0
59000000 -0.00644824901192696 -0.21861360939691704 0.9204619073061885 -0.28763090016438175 0 0 0 0
59500000 -0.006582136044185145 -0.2188221490888523 0.9191662241269949 -0.2919215962999233 0 0 0 0
60000000 -0.006899764364652282 -0.219283124233534 0.9184324250538775 -0.2957220879340693 0 0 0 0
60500000 -0.007492434622518699 -0.21878388694888576 0.9168306515649133 -0.29983812445779306 0 0 0 0
61000000 -0.008249444646126253 -0.21942966560535654 0.9151062078659093 -0.30431779770518974 0 0 0 0
61500000 -0.008635024084653066 -0.21978218540651814 0.913163129420223 -0.3078275943915227 0 0 0 0
62000000 -0.008528650152051308 -0.2195969509175354 0.9128213812097176 -0.3122428501377683 0 0 0 0
62500000 -0.009193548465652061 -0.2203372260503114 0.9109156388063012 -0.3160846609298761 0 0 0 0
63000000 -0.009689057015531353 -0.22033864706434167 0.909791204430962 -0.31962902138056065 0 0 0 0
63500000 -0.009891466120668822 -0.22098958082258235 0.908767897177612 -0.3237859387993504 0 0 0 0
64000000 -0.010053334963975707 -0.22077709245112262 0.9079787776597331 -0.3271215446193436 0 0 0 0
64500000 -0.010958265648720662 -0.22164973162807985 0.9058211549337074 -0.3316918246114554 0 0 0 0
65000000 -0.0112133249424998 -0.22185127196525833 0.9047338450420334 -0.33577723403656784 0 0 0 0
65500000 -0.011398805956285988 -0.2223359582846702 0.902426268189691 -0.33954485759818637 0 0 0 0
66000000 -0.012084919465697095 -0.22192910862329182 0.9013031621713901 -0.34229153953954805 0 0 0 0
66500000 -0.01258662974882394 -0.2228588110900386 0.8993831813792981 -0.3477883964791969 0 0 0 0
67000000 -0.01296829521243653 -0.22321769454168858 0.899205413121164 -0.3508602794608096 0 0 0 0
67500000 -0.013333447538713095 -0.22379750546541452 0.897032654968356 -0.3550942989711336 0 0 0 0
68000000 -0.014102392557394167 -0.22396441621333743 0.8958950805673089 -0.35845234719251556 0 0 0 0
68500000 -0.014288031387494573 -0.22446150147364163 0.8940141818945251 -0.36214724086321065 0 0 0 0
69000000 -0.014812073664648963 -0.22517514096421903 0.8922045798096763 -0.36639615047147195 0 0 0 0
69500000 -0.015697964585696236 -0.22566603146617972 0.8913465671902866 -0.37015173823237135 0 0 0 0
70000000 -0.01611865952098156 -0.22602097469535443 0.8893671134444349 -0.3735421170287985 0 0 0 0
70500000 -0.01674250201042738 -0.2265542947410381 0.8875122423394642 -0.378222580794563 0 0 0 0
71000000 -0.017015463516046592 -0.22678241682755718 0.8862410013915826 -0.381311800357492 0 0 0 0
71500000 -0.017504529752777755 -0.22729462203241518 0.8850921529378941 -0.38470432621161743 0 0 0 0
72000000 -0.018463291852805867 -0.2276878160711534 0.8828651807727163 -0.38827426666638704 0 0 0 0
72500000 -0.018632500689544463 -0.22846534007817623 0.8813649648950227 -0.39141098257195117 0 0 0 0
73000000 -0.019366071031927716 -0.22856680213405464 0.8775322725112534 -0.39568732662061545 0 0 0 0
73500000 -0.01996484423379423 -0.22953490852580385 0.8780261446119256 -0.40026226231856954 0 0 0 0
74000000 -0.02071458193881187 -0.23000999348018633 0.8758750567242932 -0.403391320905583 0 0 0 0
74500000 -0.021748141324923163 -0.23017758532870383 0.8750770889609196 -0.40807864487639567 0 0 0 0
75000000 -0.022003121850979534 -0.2308338701180417 0.8730426801719915 -0.41027155477060717 0 0 0 0
75500000 -0.02266109552921322 -0.23135451397289455 0.8715367875607403 -0.4147649378513989 0 0 0 0
76000000 -0.02268427142018256 -0.23167090111282673 0.8691734097179349 -0.41746170847375796 0 0 0 0
76500000 -0.023749684876189173 -0.23224937052305022 0.8677712701481882 -0.4213184942245459 0 0 0 0
77000000 -0.024254295951555507 -0.23292659391663392 0.8659139310479197 -0.42517355342151536 0 0 0 0
77500000 -0.02509203358984885 -0.23341949192173098 0.8637289892415483 -0.42862626554385597 0 0 0 0
78000000 -0.025472298220315007 -0.2343281126363688 0.8628824887774156 -0.43182442647537866 0 0 0 0
78500000 -0.026161651499713987 -0.234491147845767 0.8607843955423172 -0.43564656680014197 0 0 0 0
79000000 -0.027168353496905075 -0.23524452309987595 0.8577084129067435 -0.43942214986112726 0 0 0 0
79500000 -0.02774220677573911 -0.23590134022473638 0.8564688888432381 -0.44242296880249177 0 0 0 0
80000000 -0.02846184188896588 -0.23659107752208242 0.8550095779248456 -0.44652666843429106 0 0 0 0
80500000 -0.029060435800404672 -0.2367749884267241 0.8532283703847958 -0.45000961846700477 0 0 0 0
81000000 -0.029972834431465766 -0.23718756485564002 0.8510967335285891 -0.45233733046169455 0 0 0 0
81500000 -0.030774494416673702 -0.23770004415689824 0.8485240271470091 -0.45627151542550415 0 0 0 0
82000000 -0.03141473353529042 -0.2384353282535744 0.8475213602595744 -0.45957276323081 0 0 0 0
82500000 -0.03226998436072795 -0.2392063727570803 0.8452365684517777 -0.463136284676004 0 0 0 0
83000000 -0.03273558418205156 -0.23928152068363379 0.8431620806226662 -0.46629370707890244 0 0 0 0
83500000 -0.033742774988146006 -0.24011177102551978 0.8411083481088933 -0.4693876461318724 0 0 0 0
84000000 -0.034584567523060064 -0.24061539588350636 0.8386386594757049 -0.47279967858878436 0 0 0 0
84500000 -0.03529763128899756 -0.24111372634177525 0.8374886378124944 -0.47683199457117376 0 0 0 0
85000000 -0.03621534685507118 -0.24186932967343394 0.8359479127469798 -0.47933809994096815 0 0 0 0
85500000 -0.03719892403756244 -0.24216780318916406 0.833022026390618 -0.4828083099676273 0 0 0 0
86000000 -0.037628530795449845 -0.24287147234635845 0.8306120740671816 -0.48673674797579436 0 0 0 0
86500000 -0.03865155069334614 -0.24295507368107205 0.8285153927739162 -0.4895732048401786 0 0 0 0
87000000 -0.03990441172782391 -0.2439900161320871 0.8274992066781302 -0.4925009792618576 0 0 0 0
87500000 -0.04003840260932043 -0.24484402065033342 0.8251203431802804 -0.4968308325485513 0 0 0 0
88000000 -0.0411571592260838 -0.24486493832405967 0.8230721076652728 -0.4997191602136268 0 0 0 0
88500000 -0.04246879007522978 -0.24565695802147508 0.8200346462428819 -0.502485118519537 0 0 0 0
89000000 -0.04323646350595775 -0.24572948016926663 0.8186510936420146 -0.505778154915165 0 0 0 0
89500000 -0.04404628110953405 -0.2464842667714051 0.8164793191595318 -0.5094254579281765 0 0 0 0
90000000 -0.044533757493719274 -0.24727366250808977 0.8142162952476751 -0.5123792256891309 0 0 0 0
90500000 -0.045715653849203015 -0.24780028543490432 0.8121783015933177 -0.5161369113823975 0 0 0 0
91000000 -0.04641310707861929 -0.24825260239684618 0.8089389693861933 -0.5188783449678251 0 0 0 0
91500000 -0.047738767265986914 -0.24891722132746927 0.8075726945887549 -0.5213927216065645 0 0 0 0
92000000 -0.04811581797014661 -0.24928016874992145 0.8055819281748733 -0.5259133279115403 0 0 0 0
92500000 -0.049093818539028646 -0.24964389353912383 0.8025516118793056 -0.5273991888051573 0 0 0 0
93000000 -0.05061497632338904 -0.25017770410870716 0.8009360731292401 -0.5311285252205377 0 0 0 0
93500000 -0.051317249420588296 -0.25088228542321617 0.7986743540136616 -0.5341607508906518 0 0 0 0
94000000 -0.051889404056796845 -0.2511075825108511 0.7960041969586553 -0.537328698908134 0 0 0 0
94500000 -0.053236903603650076 -0.25143473777478603 0.7941865870982286 -0.5397624942275429 0 0 0 0
95000000 -0.05415880345738907 -0.25240527245333466 0.7921163022355684 -0.5429485051171977 0 0 0 0
95500000 -0.05514193890166844 -0.25228779503236537 0.7898790892053638 -0.5452870572550336 0 0 0 0
96000000 -0.05643790939593264 -0.2526498283783736 0.7877744359689852 -0.5487656118875638 0 0 0 0
96500000 -0.05774705263504711 -0.25343282889248964 0.7848050324374427 -0.5510744721742387 0 0 0 0
97000000 -0.05806644301968636 -0.25400988746711595 0.7826631418338814 -0.5544138318551769 0 0 0 0
97500000 -0.05932671271255256 -0.2540591171489353 0.7803020906637353 -0.5574398330402662 0 0 0 0
98000000 -0.060256872674330546 -0.2547702442606164 0.7777349044363105 -0.5605503204300423 0 0 0 0
98500000 -0.06123033341977721 -0.2548832441548878 0.774959947615066 -0.5635228548472663 0 0 0 0
99000000 -0.0622933851300743 -0.2556291749496758 0.7733891294037962 -0.565605165550614 0 0 0 0
99500000 -0.06332658216223952 -0.2555270421927078 0.7703104775581489 -0.5688518774553413 0 0 0 0
100000000 -0.06434813361552058 -0.25617931974923097 0.7685297266094737 -0.5718438531548681 0 0 0 0
100500000 -0.06576874030620468 -0.2560543626662809 0.7659717848271983 -0.5743534080189255 0 0 0 0
101000000 -0.06645761345524619 -0.25686189864783027 0.7638438550590946 -0.5764910850467471 0 0 0 0
101500000 -0.06745490867191153 -0.2570592376065964 0.7616373892333305 -0.5801987141118368 0 0 0 0
102000000 -0.06893145442509434 -0.2574124539394209 0.7584124467897412 -0.5817807069272506 0 0 0 0
102500000 -0.06969303635206361 -0.25742610983972297 0.7555137865813254 -0.5836636060377991 0 0 0 0
