# HZ S RI R 50
1000000 0.3182017806459436 -0.495731236861415 0.6749180286194509 0.4560568040877357 0 0 0 0
1500000 0.15535574942965802 -0.4046411020176887 0.8227016618488185 0.3584104315710992 0 0 0 0
2000000 0.08177772913846487 -0.3335818977213303 0.8951432312561649 0.2793761391258253 0 0 0 0
2500000 0.0427046798326892 -0.27855813577329824 0.9317085757799608 0.21858648848721296 0 0 0 0
3000000 0.019425831624464072 -0.23867329981855673 0.9530623539798263 0.1717050617137908 0 0 0 0
3500000 0.005772371197899626 -0.2078399410133231 0.9647705630303762 0.13382792043094158 0 0 0 0
4000000 -0.0034719461006792263 -0.18425505891160637 0.9732932177530862 0.10275510469457375 0 0 0 0
4500000 -0.01031903415744182 -0.1654286093700908 0.9793599825854439 0.07629285113759764 0 0 0 0
5000000 -0.014730266275501192 -0.15021754100718993 0.982195771274757 0.05301559883661339 0 0 0 0
5500000 -0.01769990383952496 -0.1384758210380548 0.9849465188763104 0.03232208217355019 0 0 0 0
6000000 -0.020550017714089253 -0.12819380145181225 0.9861270705660741 0.013072252694435354 0 0 0 0
6500000 -0.02198974822421469 -0.11896873668201491 0.9869989622927564 -0.0027709312369107366 0 0 0 0
7000000 -0.023574134608649953 -0.11175407626726049 0.9872265391329383 -0.01881388946042238 0 0 0 0
7500000 -0.024412740072175674 -0.10548811814186393 0.9873370235062404 -0.034273349298405135 0 0 0 0
8000000 -0.02509318886634896 -0.10048566064720611 0.9869705373012295 -0.047691541289703224 0 0 0 0
8500000 -0.025650602182456673 -0.09509861209287768 0.9869808898202831 -0.06176239034011759 0 0 0 0
9000000 -0.026427638384490543 -0.09141840117191333 0.9865314723602603 -0.07420437111116936 0 0 0 0
9500000 -0.02665735093615199 -0.08779035077518504 0.984640117428777 -0.08597069567511127 0 0 0 0
10000000 -0.026518474650766174 -0.08436406966397605 0.9834201743507174 -0.09796337604133833 0 0 0 0
10500000 -0.026956557409054314 -0.0818155275875283 0.9823383140834492 -0.1095959004872012 0 0 0 0
11000000 -0.027076620869791037 -0.07922988956975578 0.9812157692499133 -0.12146110279836282 0 0 0 0
11500000 -0.026942008903111558 -0.07700301943778215 0.9798617688533049 -0.1317594653208916 0 0 0 0
12000000 -0.027473015479601678 -0.07521783096653323 0.9783758547692437 -0.14191234388647977 0 0 0 0
12500000 -0.027498553342676358 -0.07379065350264875 0.9765332513870532 -0.15233691466174015 0 0 0 0
13000000 -0.027157236708203632 -0.07202082928586381 0.9743809095064974 -0.16333883828922344 0 0 0 0
13500000 -0.027202273472517524 -0.07089544936714902 0.9725214428461314 -0.1731053487412221 0 0 0 0
14000000 -0.027053635044532322 -0.06971890804703677 0.9711586414153004 -0.18283763177461135 0 0 0 0
14500000 -0.026910369121830473 -0.06886948769613005 0.9688947552853033 -0.1925968982126012 0 0 0 0
15000000 -0.02660973757374403 -0.06758149716913463 0.966690465404638 -0.20180143678041218 0 0 0 0
15500000 -0.026515172459560303 -0.06723272833753836 0.9645401328514668 -0.21115175843476985 0 0 0 0
16000000 -0.026736738899799817 -0.06660938114060486 0.9620573799174121 -0.22056350095026683 0 0 0 0
16500000 -0.026448952846073612 -0.06598535774982209 0.9601645751611201 -0.229635143084443 0 0 0 0
17000000 -0.026520834646650043 -0.0659518271171654 0.9566597197421282 -0.23856502803410873 0 0 0 0
17500000 -0.026200372588075328 -0.06509549195672538 0.954760982418162 -0.247801507587562 0 0 0 0
18000000 -0.026254745340155428 -0.06504660151154557 0.9522781998008663 -0.2566084446016718 0 0 0 0
18500000 -0.025590321923445725 -0.0648986248046633 0.9492883486819806 -0.2657905845550952 0 0 0 0
19000000 -0.0260451869364477 -0.06462976428439679 0.9467760893102392 -0.27357939096173034 0 0 0 0
19500000 -0.02575151607176376 -0.06482132975089679 0.944343554225133 -0.28259665426427266 0 0 0 0
20000000 -0.025829618681331816 -0.06447572634099329 0.9409382934529043 -0.2913280636304523 0 0 0 0
20500000 -0.02572939082053944 -0.06480167554216354 0.9387117555210613 -0.2994011394594672 0 0 0 0
21000000 -0.025767033501113007 -0.0651076800106454 0.9357438650348399 -0.3081941757391516 0 0 0 0
21500000 -0.025798987865786424 -0.06506656635357552 0.932440534451353 -0.3161594591795518 0 0 0 0
22000000 -0.025666082821462665 -0.06539892806473889 0.9291370585797313 -0.324637065262136 0 0 0 0
22500000 -0.025168987738100394 -0.06553960441169718 0.9258386442923567 -0.33239205563537444 0 0 0 0
23000000 -0.025204655508100582 -0.06584617114870096 0.9231016958774426 -0.34105867189879524 0 0 0 0
23500000 -0.025246437630166575 -0.0667063080391183 0.9201105201164508 -0.34880832140935836 0 0 0 0
24000000 -0.02520140330622641 -0.06685159345391332 0.9163757924872821 -0.35676293423772454 0 0 0 0
24500000 -0.025084826351198124 -0.06699445571921013 0.9131971765051884 -0.36447575019491446 0 0 0 0
25000000 -0.025075973839725416 -0.06751605525276874 0.9086066533217774 -0.3727109299657137 0 0 0 0
25500000 -0.025225857909257684 -0.06796462550255428 0.9063099998004728 -0.3801501625782 0 0 0 0
26000000 -0.025276394997815275 -0.06851327776923251 0.9025573727614754 -0.38699191791539395 0 0 0 0
26500000 -0.025056585818577174 -0.06900408314698023 0.8984430904640045 -0.3954726108839941 0 0 0 0
27000000 -0.025293889221993836 -0.06965544505656106 0.8948000513367843 -0.4037431954107324 0 0 0 0
27500000 -0.02497758517005007 -0.06983968093085523 0.891026008126007 -0.410306527301447 0 0 0 0
28000000 -0.02526089165287579 -0.07096837293409741 0.8879760738229475 -0.41822974573829536 0 0 0 0
28500000 -0.025397086533598096 -0.07178974942035228 0.8841612299171256 -0.4261113512698807 0 0 0 0
29000000 -0.025341427723103136 -0.07232965447241364 0.8803509920448296 -0.43382099788051726 0 0 0 0
29500000 -0.02541343671350215 -0.07274425884447919 0.8762179550307919 -0.44080358888410065 0 0 0 0
30000000 -0.025465419758561574 -0.07359146418301107 0.8725604241865611 -0.4479746173806642 0 0 0 0
30500000 -0.02554539478096717 -0.07440463613983479 0.8680178989154199 -0.4557451323078457 0 0 0 0
31000000 -0.026079764758236444 -0.07496116125634608 0.8647792264375351 -0.46289722903553293 0 0 0 0
31500000 -0.02613089503587404 -0.0750475646452592 0.8601824820563121 -0.47033602912071965 0 0 0 0
32000000 -0.026075046439578416 -0.0764409514989209 0.8563057652888367 -0.47686939760012137 0 0 0 0
32500000 -0.026156451050786542 -0.07689081724767746 0.8519999052162783 -0.4846007040272199 0 0 0 0
33000000 -0.026550599247308897 -0.07782736480316012 0.8478269532209062 -0.4915394692059686 0 0 0 0
33500000 -0.026517713424985226 -0.07832274532397154 0.8430678000229234 -0.49844987824690035 0 0 0 0
34000000 -0.02715067722050635 -0.07919166360677063 0.8391330619167011 -0.5055530212358248 0 0 0 0
34500000 -0.02708132194536303 -0.08013051728046863 0.8342420469079395 -0.5128803894326667 0 0 0 0
35000000 -0.027553148222920393 -0.08117244336352863 0.8305534714151136 -0.5194580092068244 0 0 0 0
35500000 -0.027833005305153386 -0.08225963637260617 0.8252365664871871 -0.5272728471501923 0 0 0 0
36000000 -0.027919286099312695 -0.08311217568666976 0.8207399148712584 -0.5340348439043086 0 0 0 0
36500000 -0.028205517943402526 -0.0835661837173533 0.8163202870908721 -0.5406342224139093 0 0 0 0
37000000 -0.028710220923521743 -0.0841369206568508 0.8114706627719184 -0.5473851088833286 0 0 0 0
37500000 -0.029027096574155063 -0.08464025162533488 0.8062216167795849 -0.5522384667836571 0 0 0 0
38000000 -0.029378805329733967 -0.08600067919600066 0.8026247349864689 -0.5607209248174807 0 0 0 0
38500000 -0.029462268546530765 -0.08631050588856631 0.7975415434374806 -0.5671751202518706 0 0 0 0
39000000 -0.029827877493628353 -0.08778137974875842 0.7926209199700548 -0.5741757287723663 0 0 0 0
39500000 -0.03064051987148289 -0.08846788880079828 0.7872803192169264 -0.5802517572275148 0 0 0 0
40000000 -0.03107559825966601 -0.08890633690015483 0.7824646498888822 -0.5867128912527053 0 0 0 0
40500000 -0.03145050491210793 -0.09011511459245186 0.7773526425009526 -0.5934808704547884 0 0 0 0
41000000 -0.03183298677687987 -0.09085022277470337 0.7729978626471085 -0.5999657644066777 0 0 0 0
41500000 -0.03186482470852206 -0.09156497278137653 0.7680839314077996 -0.60653662471074 0 0 0 0
42000000 -0.032183791182618986 -0.09285085628207798 0.762468594280323 -0.6127503226788393 0 0 0 0
42500000 -0.03299234921639804 -0.09304486833436625 0.7601045647418448 -0.6205254397568079 0 0 0 0
43000000 -0.03342071246484998 -0.09412923736326931 0.7519840302796377 -0.6252219130444098 0 0 0 0
43500000 -0.034035741328156434 -0.09450416805410253 0.7473909063118251 -0.6315337927661696 0 0 0 0
44000000 -0.0345886903286255 -0.0954784869778156 0.7411097454340568 -0.6379084004428182 0 0 0 0
44500000 -0.03478458206748789 -0.09641328059997131 0.7356697093977395 -0.6441086152361368 0 0 0 0
45000000 -0.03552541653425524 -0.09668177128671919 0.7302837179974457 -0.6504047144197515 0 0 0 0
45500000 -0.03611529019296507 -0.09806889938849075 0.7252585734065031 -0.656657840519806 0 0 0 0
46000000 -0.0368728415326736 -0.09850703325850674 0.719290049874765 -0.6628400355914957 0 0 0 0
46500000 -0.03742467490265902 -0.09986984951056203 0.713502230467102 -0.6695068763646108 0 0 0 0
47000000 -0.0380589997904699 -0.10030486487559685 0.7073418502063212 -0.6753514922427525 0 0 0 0
47500000 -0.03906202708163063 -0.10107956077452256 0.7021688814522443 -0.6815436571471873 0 0 0 0
48000000 -0.039249307975347966 -0.10197813925261255 0.6971744830095682 -0.6873889693998901 0 0 0 0
48500000 -0.04031124004476539 -0.10263694829892733 0.6906419630199943 -0.6937468741164982 0 0 0 0
49000000 -0.040751698688815736 -0.10304374187762692 0.6842833188606492 -0.6988429900056378 0 0 0 0
49500000 -0.04184745102468177 -0.10400440304780026 0.6782719852063966 -0.705319889209599 0 0 0 0
50000000 -0.04174144619776283 -0.10440054244704011 0.6724275936355871 -0.710693211917328 0 0 0 0
50500000 -0.042870932180400015 -0.10505200617236374 0.6662014861373667 -0.7164344067688659 0 0 0 0
51000000 -0.04356484665866447 -0.10574783178855235 0.6600163897238224 -0.7226188262126949 0 0 0 0
51500000 -0.04458508660767522 -0.10640988715271424 0.6536034507034029 -0.7283135192506536 0 0 0 0
52000000 -0.04537573196892597 -0.10673236360809729 0.6475947822836765 -0.7338283807559767 0 0 0 0
52500000 -0.04549946852975773 -0.10762462401415122 0.640266504410654 -0.7396596635398371 0 0 0 0
53000000 -0.04660949808190566 -0.10772658029428753 0.6347327691225766 -0.7446395838701609 0 0 0 0
53500000 -0.04724210059391436 -0.10917104771854867 0.6279767343251199 -0.7500670173359206 0 0 0 0
54000000 -0.04780304519564752 -0.10954248835479964 0.6219210438245026 -0.7565691117703711 0 0 0 0
54500000 -0.048722470879560796 -0.11011526078706976 0.6154485967337163 -0.7610016510422074 0 0 0 0
55000000 -0.049604500259880654 -0.11006300935903812 0.6085533178430463 -0.7668809022208951 0 0 0 0
55500000 -0.05063285164130788 -0.11062351134995467 0.6017649326779716 -0.7707825666895031 0 0 0 0
56000000 -0.051261179350299876 -0.11110381308205536 0.5952609825510844 -0.7766681899813115 0 0 0 0
56500000 -0.05234361923535381 -0.11182956186084497 0.5884314848670845 -0.7815876776745845 0 0 0 0
57000000 -0.05328887767483538 -0.11247916079145437 0.5812665360020906 -0.7879741054887269 0 0 0 0
57500000 -0.05385357463865493 -0.11266125140014248 0.5753367723025354 -0.7916108771172384 0 0 0 0
58000000 -0.05460013164677284 -0.11339543515213335 0.5673931018569242 -0.7974145243985642 0 0 0 0
58500000 -0.05546242579171344 -0.11360017354593147 0.5609153041207662 -0.8029959376810843 0 0 0 0
59000000 -0.05594168537754075 -0.11377221471365098 0.5541123032233809 -0.8074136836303012 0 0 0 0
59500000 -0.05665782479977814 -0.11405216723896494 0.547119965566804 -0.8124111433565484 0 0 0 0
60000000 -0.05789107770282721 -0.11443795886051447 0.5398403852591643 -0.8172938219391239 0 0 0 0
60500000 -0.05867478896523891 -0.11428289257989449 0.5326282954050912 -0.8218810282893185 0 0 0 0
61000000 -0.059715015652138714 -0.11511350003183676 0.5250451933535477 -0.8265195381395963 0 0 0 0
61500000 -0.06008374982343633 -0.11505291289567805 0.5183019536419601 -0.830560995234515 0 0 0 0
62000000 -0.061223043682398864 -0.11523370536714099 0.5104393967882191 -0.835993107283932 0 0 0 0
62500000 -0.062074586906251804 -0.11589331629221085 0.503307782863484 -0.8399571834763563 0 0 0 0
63000000 -0.0627895293216132 -0.1157041755540436 0.496071131857445 -0.84419612249212 0 0 0 0
63500000 -0.06348675962826061 -0.11616672053422922 0.48851395987832635 -0.8487152604505777 0 0 0 0
64000000 -0.06493434386821437 -0.11594005097207714 0.48176293380389257 -0.8535495449053664 0 0 0 0
64500000 -0.06574139505581526 -0.11630154251824243 0.4728550365281429 -0.8574969260105838 0 0 0 0
65000000 -0.06647338368765905 -0.11594497918047067 0.46508962050837266 -0.861503200730638 0 0 0 0
65500000 -0.06719040972766958 -0.11634755678152425 0.4575913607106539 -0.8657308447351901 0 0 0 0
66000000 -0.06806291020730204 -0.11578423630594571 0.4500465280385272 -0.8689295014944192 0 0 0 0
66500000 -0.06885850810838723 -0.11602077682568412 0.4421611960844671 -0.8740510839510466 0 0 0 0
67000000 -0.0697062655791284 -0.11629630632477887 0.43440977611297826 -0.8776906462826234 0 0 0 0
67500000 -0.070212902441281 -0.11591507099174095 0.42671542179893973 -0.8822277726187886 0 0 0 0
68000000 -0.07121574170408403 -0.11566068943167448 0.41851324396807427 -0.8846700398453957 0 0 0 0
68500000 -0.07179435723625945 -0.11601057488959285 0.41086906901794185 -0.8890217326070842 0 0 0 0
69000000 -0.07253669781731896 -0.11581269538862571 0.40187604790522147 -0.8923323283575837 0 0 0 0
69500000 -0.07363780595804229 -0.11557056869830118 0.3944140865466374 -0.8965552761462958 0 0 0 0
70000000 -0.07398068069425867 -0.11546301145400482 0.3872774266315757 -0.8993894707774983 0 0 0 0
70500000 -0.07516948885034702 -0.11518350120469299 0.3770683691302916 -0.9030167392118933 0 0 0 0
71000000 -0.07548747126600802 -0.11512361573411886 0.3703233476455145 -0.9064213940720826 0 0 0 0
71500000 -0.07645575693178237 -0.1148783669258099 0.3615619526632753 -0.9092079637986852 0 0 0 0
72000000 -0.07706100092820412 -0.11472870511330648 0.352983759585283 -0.9123779938800516 0 0 0 0
72500000 -0.0777959094475171 -0.11419905869043155 0.34492448736401865 -0.9151210938866038 0 0 0 0
73000000 -0.07799457813371731 -0.11360762099725959 0.3338651230218724 -0.9176306876714 0 0 0 0
73500000 -0.07895265254978781 -0.11355195916740851 0.32822355297913863 -0.9218242762727173 0 0 0 0
74000000 -0.07988794880000742 -0.1130568757260379 0.31970234939022124 -0.9240691194774138 0 0 0 0
74500000 -0.08053373709011712 -0.11255253715945698 0.31099175137502366 -0.9272158773221673 0 0 0 0
75000000 -0.08093959487827102 -0.11243857931695998 0.3028769606166455 -0.9306213944978283 0 0 0 0
75500000 -0.08104459706046678 -0.11158104557182115 0.29435074726578897 -0.9331280324129082 0 0 0 0
76000000 -0.08176399950075107 -0.11110419524004321 0.2849826697825375 -0.9352653921503729 0 0 0 0
76500000 -0.08291884901560158 -0.11118526561428578 0.27629986920420496 -0.9375258357390721 0 0 0 0
77000000 -0.08310537015546011 -0.11009640143458518 0.2675876793528374 -0.940239260881229 0 0 0 0
77500000 -0.08380248507557568 -0.10998433686851503 0.2585943276014683 -0.9427437729997665 0 0 0 0
78000000 -0.08420883423460403 -0.10904747162879652 0.24973531970104204 -0.944999207881736 0 0 0 0
78500000 -0.0842553658939396 -0.10833623963507794 0.24129600015131117 -0.9472816264345195 0 0 0 0
79000000 -0.0849211904088025 -0.10789646613561248 0.23154811755688287 -0.9483954165878161 0 0 0 0
79500000 -0.08532774667517284 -0.10771428614111099 0.22272718802899458 -0.9509899032111123 0 0 0 0
80000000 -0.08591472632844321 -0.10685501855844189 0.2135719653325057 -0.952763939269264 0 0 0 0
80500000 -0.08598111779924177 -0.1056176922917603 0.20434442877371334 -0.9546000598013807 0 0 0 0
81000000 -0.08621763945753677 -0.1048327617668542 0.19611780922134145 -0.9558785288084456 0 0 0 0
81500000 -0.08692277175648037 -0.10415936481914084 0.18725029194037293 -0.957241357263551 0 0 0 0
82000000 -0.08655068674227859 -0.1038372665871229 0.1784573224613611 -0.9593334400960953 0 0 0 0
82500000 -0.087213421870764 -0.10290277053884493 0.16869771635974865 -0.9603758305410756 0 0 0 0
83000000 -0.08714399905064063 -0.10245800735966622 0.1592394402319467 -0.9620195027395669 0 0 0 0
83500000 -0.08710499846808124 -0.10165659650301491 0.15051171700905377 -0.9626210455519346 0 0 0 0
84000000 -0.0873287341399545 -0.10082031495470747 0.1424843142548245 -0.9629412175823412 0 0 0 0
84500000 -0.08763341882553286 -0.1002010826323271 0.13300253099852538 -0.9653040261751421 0 0 0 0
85000000 -0.08734994356964633 -0.09913070017253824 0.1242256448228804 -0.9659370069602492 0 0 0 0
85500000 -0.08753452548979841 -0.09876191412855072 0.11504202489516743 -0.9668311413278525 0 0 0 0
86000000 -0.08764679967012849 -0.09761544382732283 0.10533598764648737 -0.9671087497381167 0 0 0 0
86500000 -0.08735382568417348 -0.09652763603224869 0.09602417149295989 -0.9675873795101199 0 0 0 0
87000000 -0.08770421246465698 -0.0962611737202735 0.08862361864073105 -0.9682874302208333 0 0 0 0
87500000 -0.0871693771232684 -0.09521296683282578 0.0778308058053757 -0.9697093844630604 0 0 0 0
88000000 -0.08726468238127878 -0.09422043002527596 0.0692708154734237 -0.970082583281331 0 0 0 0
88500000 -0.08716624795514448 -0.09338998534477987 0.05987659441471129 -0.9691817996380884 0 0 0 0
89000000 -0.08668880365894478 -0.09243170383157186 0.05180928230423069 -0.9698843202669656 0 0 0 0
89500000 -0.08631148903040237 -0.09167924647563748 0.041974392062678355 -0.9700105274011495 0 0 0 0
90000000 -0.08581288169711468 -0.09110026198094341 0.033410735577287465 -0.9706343870996617 0 0 0 0
90500000 -0.0857000297081509 -0.09019110165482822 0.023340572734220712 -0.9701682375909716 0 0 0 0
91000000 -0.08490283421565026 -0.08930307392224407 0.015107802721578474 -0.9701442398767399 0 0 0 0
91500000 -0.08484973490286336 -0.0885904480289955 0.005998982483347726 -0.9696756118096983 0 0 0 0
92000000 -0.08405137639274135 -0.0872120963363151 -0.003640446830293017 -0.9695350344941431 0 0 0 0
92500000 -0.08389958776794379 -0.08674099968171961 -0.012566204050319295 -0.9682467242100677 0 0 0 0
93000000 -0.08328087790244387 -0.08565966267058091 -0.022092815788733483 -0.9692179529095967 0 0 0 0
93500000 -0.08291646634840523 -0.0851794233189511 -0.030849539426602478 -0.9681767762029406 0 0 0 0
94000000 -0.08227883283796461 -0.08399202697286642 -0.040869433260907015 -0.9672983283437199 0 0 0 0
94500000 -0.08148785902174331 -0.08303884582227865 -0.04881494263334138 -0.9668782867634919 0 0 0 0
95000000 -0.08058200981611921 -0.08266951407539173 -0.05815111976101045 -0.9660060608143749 0 0 0 0
95500000 -0.08005186450207857 -0.08132560402896191 -0.06738169616576226 -0.9648116481784079 0 0 0 0
96000000 -0.07915282263085092 -0.08101982412894856 -0.0761284796581541 -0.9644745030729183 0 0 0 0
96500000 -0.07846644953009996 -0.0799229726305674 -0.08548580475681924 -0.962775805187519 0 0 0 0
97000000 -0.07713053137628884 -0.07897282045945239 -0.09483478958833425 -0.9615448085889532 0 0 0 0
97500000 -0.0763148714070889 -0.07856557719689394 -0.10389056599522892 -0.9611507142864615 0 0 0 0
98000000 -0.07552995041533869 -0.07774216956452316 -0.11354727810714009 -0.9592144569042604 0 0 0 0
98500000 -0.07432207152251132 -0.07653502281270243 -0.12257611194383734 -0.9581614172589242 0 0 0 0
99000000 -0.07345051423133618 -0.0761295940876373 -0.13151481027274645 -0.9564618015568516 0 0 0 0
99500000 -0.07229991129757872 -0.07537416057052664 -0.1409425582999945 -0.9545951850323685 0 0 0 0
100000000 -0.07120079631148596 -0.07456587823530854 -0.1497518013391927 -0.9529011458539558 0 0 0 0
100500000 -0.07005740078720411 -0.07367482501188856 -0.15811561410530756 -0.9508921550960807 0 0 0 0
101000000 -0.06878082358676166 -0.07304576914670911 -0.16767014736804292 -0.9489974105863378 0 0 0 0
101500000 -0.06742961544523489 -0.0726056865964934 -0.17720296992361437 -0.9481921787342443 0 0 0 0
102000000 -0.06638569746268214 -0.07215120015686288 -0.18609397233672964 -0.9450325311200978 0 0 0 0
