# HZ S RI R 50
100000000 -0.07126377736683566 -0.07446339125920261 -0.14927556714244292 -0.9518681408302789 0 0 0 0
100100000 -0.07081147321251019 -0.07404368913351808 -0.15026933020432173 -0.952046058687868 0 0 0 0
100200000 -0.07146206534444718 -0.0739883363187887 -0.15172092953499494 -0.9516117392467888 0 0 0 0
100300000 -0.07057609975348086 -0.07387685941704424 -0.15501503204316838 -0.9502202799624658 0 0 0 0
100400000 -0.07034718445689343 -0.07421034559148441 -0.15636131401018927 -0.951186880235511 0 0 0 0
100500000 -0.07015133658867716 -0.07347258795310962 -0.15853147916842164 -0.9501945059220334 0 0 0 0
100600000 -0.07002576950698726 -0.0735029939296495 -0.159588466966048 -0.9501182659417717 0 0 0 0
100700000 -0.06953396099242598 -0.0731338698848864 -0.162115358405109 -0.9492487627863645 0 0 0 0
100800000 -0.0692175485993065 -0.07312228892201941 -0.16419198242292388 -0.9489168848257945 0 0 0 0
100900000 -0.06910490631111346 -0.07301300730855897 -0.16486647618940364 -0.9490294784387509 0 0 0 0
101000000 -0.0688251439984237 -0.07260856428247754 -0.16715469447610695 -0.9483779376178685 0 0 0 0
101100000 -0.06898750440171153 -0.07293875548701993 -0.1691438330264608 -0.9489322269069778 0 0 0 0
101200000 -0.06813387734580743 -0.07265969340923804 -0.17093886035667588 -0.9472396979498687 0 0 0 0
101300000 -0.06820308395973146 -0.07237936322306153 -0.17338019573180227 -0.947825187022406 0 0 0 0
101400000 -0.0676021302945857 -0.0723097633237691 -0.17467867710269036 -0.9469005265102542 0 0 0 0
101500000 -0.06776906725763679 -0.07237622341412756 -0.17666166854830329 -0.9458937127641031 0 0 0 0
101600000 -0.06715027167582896 -0.0720764715202511 -0.17838686535056353 -0.9460781233967904 0 0 0 0
101700000 -0.06731209802168149 -0.07179803007716577 -0.17963063216806208 -0.9450406666312477 0 0 0 0
101800000 -0.06673012672169097 -0.07219788125009964 -0.18206363127679712 -0.9454235597514218 0 0 0 0
101900000 -0.06670610454736739 -0.07203727392526738 -0.1839716333380367 -0.9443037049559284 0 0 0 0
102000000 -0.0661192797743876 -0.07156511113664318 -0.18565942507511063 -0.9444431287635006 0 0 0 0
102100000 -0.06569098275966638 -0.07190340889444316 -0.1882774760222405 -0.9439332813129623 0 0 0 0
102200000 -0.06586884436417063 -0.07174920690212641 -0.189878191335401 -0.9436320007546799 0 0 0 0
102300000 -0.06506791019611077 -0.071378290051365 -0.19192093420525413 -0.9429995409244919 0 0 0 0
102400000 -0.06527805156593887 -0.07118444878373432 -0.19310884430714317 -0.942154913196367 0 0 0 0
102500000 -0.06500664819861166 -0.07120418264045558 -0.1954444225745383 -0.9424623121763485 0 0 0 0
102600000 -0.06442822723350683 -0.07112947242830842 -0.19658245547335726 -0.9416131360509178 0 0 0 0
102700000 -0.06481751204312772 -0.07106278139008324 -0.1993305423726211 -0.941078530683153 0 0 0 0
102800000 -0.06441188599958449 -0.070840356740769 -0.20060301235646663 -0.9406327870273805 0 0 0 0
102900000 -0.06394102249133853 -0.07058283492492602 -0.20352693683456735 -0.9409705131134961 0 0 0 0
103000000 -0.06384650474886175 -0.07040101496757022 -0.2048131080420779 -0.9410399038030846 0 0 0 0
103100000 -0.06338538841991456 -0.07050809549675262 -0.20612931203018914 -0.9403653188267961 0 0 0 0
103200000 -0.06276960162010027 -0.07042341757848634 -0.20817782859521894 -0.9390711704254637 0 0 0 0
103300000 -0.06260629797521373 -0.07030714117548627 -0.21076397656924672 -0.9383399257577845 0 0 0 0
103400000 -0.06250018789364105 -0.07008089854631598 -0.21203937007979556 -0.938727267486866 0 0 0 0
103500000 -0.062430890177808014 -0.06994680308965645 -0.21317342454160804 -0.9375038829634935 0 0 0 0
103600000 -0.06213326140059776 -0.0701050136248316 -0.21637032036022205 -0.9370745113386164 0 0 0 0
103700000 -0.061470473885523826 -0.06952487567755743 -0.21691057547800457 -0.9366852914528112 0 0 0 0
103800000 -0.06137518392628283 -0.06995740532430529 -0.21882890181965153 -0.9365094118524837 0 0 0 0
103900000 -0.06131767900893194 -0.06975928718137239 -0.2211558231641908 -0.9356982145814161 0 0 0 0
104000000 -0.06134543456944004 -0.06962456855298058 -0.22270927394375367 -0.9353787659866041 0 0 0 0
104100000 -0.06027452303947461 -0.06912767795277734 -0.22474318125532058 -0.9350328897140324 0 0 0 0
104200000 -0.0605814799547705 -0.06920984111158385 -0.22652555083096085 -0.9339592670435864 0 0 0 0
104300000 -0.05999876833293165 -0.06921478498470163 -0.2277982793288083 -0.9337822803096612 0 0 0 0
104400000 -0.05917300182699017 -0.06889747352363393 -0.2303214371951041 -0.9337756284698129 0 0 0 0
104500000 -0.059035902737798136 -0.06903957435512441 -0.2324894386839933 -0.9333966519354502 0 0 0 0
104600000 -0.05892357932970458 -0.0693916991187614 -0.23433211228481116 -0.9323520911459398 0 0 0 0
104700000 -0.05873672849156806 -0.06900956981031799 -0.23561489605899685 -0.9323052072351948 0 0 0 0
104800000 -0.05842636307182777 -0.06909280243911615 -0.23750026581980016 -0.9312094509547072 0 0 0 0
104900000 -0.05774071814070271 -0.0686490906285371 -0.23941565690696423 -0.9307742429290419 0 0 0 0
105000000 -0.05762394740210838 -0.06884480807984136 -0.24172353809163086 -0.9301447639531084 0 0 0 0
105100000 -0.05719788437770195 -0.06906409162100666 -0.24379375959747143 -0.9301316796683199 0 0 0 0
105200000 -0.05702423330262974 -0.06842081603075316 -0.2447156315124313 -0.9289878965491813 0 0 0 0
105300000 -0.056923294942459346 -0.06790850453672335 -0.24699053891808082 -0.928196624047055 0 0 0 0
105400000 -0.05631727189324552 -0.068566295609434 -0.24836557787654714 -0.9282417865428794 0 0 0 0
105500000 -0.05581173678275604 -0.06809250493836613 -0.25029756859337776 -0.9273646944327464 0 0 0 0
105600000 -0.05573587686115014 -0.06796485143779035 -0.2517907011474215 -0.9276607999737118 0 0 0 0
105700000 -0.055493486187969544 -0.06830094096156152 -0.25364043986257434 -0.9272306340236339 0 0 0 0
105800000 -0.054987634552920855 -0.06801895943800024 -0.2551199828325287 -0.9261178288890738 0 0 0 0
105900000 -0.05515125291371268 -0.06800489610417121 -0.2579945821871372 -0.9257865799382275 0 0 0 0
106000000 -0.05433225757331231 -0.06783501975320058 -0.25973344101293333 -0.9246334307227267 0 0 0 0
106100000 -0.054222240209222075 -0.06776907590454243 -0.26138629885542414 -0.9247484454221239 0 0 0 0
106200000 -0.053730422212901655 -0.06767184373852371 -0.262472986311342 -0.9245115389399152 0 0 0 0
106300000 -0.05331567834853993 -0.067732766176298 -0.2646451283394862 -0.9227642453919221 0 0 0 0
106400000 -0.05326670403093602 -0.06770724143788102 -0.2678462837077574 -0.9222517534765322 0 0 0 0
106500000 -0.05295718831637626 -0.06776604628408553 -0.2689136348825319 -0.9221870905840535 0 0 0 0
106600000 -0.052485440470720006 -0.06744708673494816 -0.2702407018234891 -0.9213125078818831 0 0 0 0
106700000 -0.052364603963621206 -0.06751121426741849 -0.27288865804168316 -0.9206763233873129 0 0 0 0
106800000 -0.05193826075831599 -0.06725982698359446 -0.27407534519159127 -0.9203707878319973 0 0 0 0
106900000 -0.051621253049001656 -0.06723797081977483 -0.27617755516213865 -0.9197494095994703 0 0 0 0
107000000 -0.05126352786014799 -0.06731691339922338 -0.2778931330087677 -0.9196602126110272 0 0 0 0
107100000 -0.051064951933648316 -0.06714112469972577 -0.27957887104376977 -0.9188163532749776 0 0 0 0
107200000 -0.050448437994086326 -0.06699673905179127 -0.2809928960423577 -0.9181665777386865 0 0 0 0
107300000 -0.050144908663118715 -0.0670509182993339 -0.2830820348639967 -0.9172553077496981 0 0 0 0
107400000 -0.05020996369606631 -0.0671688599469375 -0.2847219441725091 -0.9161144208992609 0 0 0 0
107500000 -0.049551919602878615 -0.06704491713298807 -0.28654122954536726 -0.9160700192975891 0 0 0 0
107600000 -0.04891858139705698 -0.06735694792187324 -0.2889785766736342 -0.915047291331969 0 0 0 0
107700000 -0.04895462236293212 -0.06692556837899079 -0.29047859774910845 -0.9148787008379786 0 0 0 0
107800000 -0.04825462606754019 -0.06653746952697036 -0.2919600992532377 -0.9143251534120024 0 0 0 0
107900000 -0.04809547869321748 -0.06681492289091519 -0.29376632285225823 -0.913525080607094 0 0 0 0
108000000 -0.04746371313486911 -0.06690163265397571 -0.29647220748671527 -0.9139333514810497 0 0 0 0
108100000 -0.04738478870489435 -0.0662723024044717 -0.29804931098392606 -0.9125147753532057 0 0 0 0
108200000 -0.0471211511408646 -0.06640031700037362 -0.2996721907608466 -0.9115778185987675 0 0 0 0
108300000 -0.04676036903159213 -0.0666738429730447 -0.30148750962668247 -0.9113954994808298 0 0 0 0
108400000 -0.04654848633148814 -0.06662581116304098 -0.3039915911113202 -0.9101228264525607 0 0 0 0
108500000 -0.04610419932655181 -0.0667022288721551 -0.3054594588973317 -0.9097871832078043 0 0 0 0
108600000 -0.04597775933968816 -0.06675506084728446 -0.30718434212264945 -0.90916303666938 0 0 0 0
108700000 -0.04527508690080063 -0.06657753216725457 -0.3086472248955728 -0.9082774783032724 0 0 0 0
108800000 -0.045139438782295295 -0.06676858160543257 -0.3112411579655049 -0.9071246160940566 0 0 0 0
108900000 -0.044698073533028584 -0.06661910996971786 -0.3122206727810396 -0.9074756332899971 0 0 0 0
109000000 -0.04413934147784583 -0.06626244038773661 -0.31441630695235284 -0.9063734767546764 0 0 0 0
109100000 -0.04417303234709861 -0.06638275227972913 -0.3166665084399067 -0.9049427247353768 0 0 0 0
109200000 -0.04327681680184174 -0.06652095872078478 -0.31800358603022016 -0.9053729671305186 0 0 0 0
109300000 -0.04332303145628454 -0.06643913764405739 -0.3199315862338826 -0.90464494915584 0 0 0 0
109400000 -0.04287273949455859 -0.06682903064527991 -0.3220956416195851 -0.9028979893289357 0 0 0 0
109500000 -0.04239678662679811 -0.06642582380513652 -0.3243922223543767 -0.9024706580058152 0 0 0 0
109600000 -0.041955206490464206 -0.06618518828501875 -0.32545113800222764 -0.9026627815026729 0 0 0 0
109700000 -0.04136292218570677 -0.06619659166911376 -0.3274059608982396 -0.9015660984440187 0 0 0 0
109800000 -0.04117647792101655 -0.06663243256364787 -0.3288949633945541 -0.9003694017267097 0 0 0 0
109900000 -0.04082314999286058 -0.06617335765257427 -0.33090757937369014 -0.9008434533242335 0 0 0 0
110000000 -0.040274242554982215 -0.06665531933185886 -0.3327782878749864 -0.8995335829801335 0 0 0 0
110100000 -0.040015480529713585 -0.06631775221294524 -0.3343100558288262 -0.8993516293873915 0 0 0 0
110200000 -0.039885494013759314 -0.06635730659837044 -0.3363218118724326 -0.8982011157900285 0 0 0 0
110300000 -0.03953009536093585 -0.06643978823696005 -0.33868994960317833 -0.897096703509074 0 0 0 0
110400000 -0.03923711080263737 -0.06622973033375125 -0.3404725018799541 -0.8961728657029835 0 0 0 0
110500000 -0.03884297355298316 -0.06608026917571938 -0.34198070498735844 -0.8964309227731866 0 0 0 0
110600000 -0.038578814422544856 -0.06646973320885556 -0.3428771547299397 -0.8956622725466621 0 0 0 0
110700000 -0.038037942671236356 -0.06608997792563948 -0.34564108934440996 -0.8948519858103064 0 0 0 0
110800000 -0.03760168411602074 -0.06665911242977827 -0.34673110652721234 -0.8938962750154195 0 0 0 0
110900000 -0.03714494455409293 -0.06638958678469888 -0.34847643158879593 -0.892989694144431 0 0 0 0
111000000 -0.03666951710722053 -0.06605943786178962 -0.3513183462574351 -0.8922082746808813 0 0 0 0
111100000 -0.0363116081982909 -0.06640061444275307 -0.35301696504675617 -0.8910941618245063 0 0 0 0
111200000 -0.03616483272413924 -0.06638570460813362 -0.3545564153602539 -0.8905342755295949 0 0 0 0
111300000 -0.035647405622672525 -0.06644898135349206 -0.3564217451502651 -0.8903946507087483 0 0 0 0
111400000 -0.035378715331571935 -0.06633026119220674 -0.3580491172823274 -0.889183662086616 0 0 0 0
111500000 -0.034824484767986004 -0.06653022067099477 -0.35946538153456775 -0.8881855632023439 0 0 0 0
111600000 -0.034683482604878094 -0.06676432909543838 -0.362300457492806 -0.8877539215319239 0 0 0 0
111700000 -0.0339535798248373 -0.06661178448613142 -0.36379379586793364 -0.8873029923168856 0 0 0 0
111800000 -0.03411179807229874 -0.06682474892010462 -0.3645179185738575 -0.886737880098613 0 0 0 0
111900000 -0.03303424347586259 -0.06667061602380213 -0.3660794615773897 -0.8854809087761624 0 0 0 0
112000000 -0.03287505553400852 -0.06647907389898326 -0.3685174359886748 -0.884656822248921 0 0 0 0
112100000 -0.03239728296570433 -0.06695753483064824 -0.37087130942908997 -0.8834407719209788 0 0 0 0
112200000 -0.03181657482145831 -0.06671249197309029 -0.37318323282047133 -0.8832737675348639 0 0 0 0
112300000 -0.03184260241064158 -0.06680637402981729 -0.37437048462102046 -0.8823794010983436 0 0 0 0
112400000 -0.031229835662094408 -0.06678284212951185 -0.3758773997577934 -0.8813556749042691 0 0 0 0
112500000 -0.031107015492879905 -0.06688991372264368 -0.37845913167599654 -0.8798503339308208 0 0 0 0
112600000 -0.030398311462333585 -0.06721933199229366 -0.3796946346049137 -0.8800557890426574 0 0 0 0
112700000 -0.02984001561478033 -0.06701463376875622 -0.38161106218040297 -0.8794511791450812 0 0 0 0
112800000 -0.029361489961248145 -0.06690968219235979 -0.3832751206285605 -0.8781186512471979 0 0 0 0
112900000 -0.029402871431614686 -0.06689224640592992 -0.3858451463966233 -0.877806708301681 0 0 0 0
113000000 -0.028215285703028007 -0.06705539126053067 -0.3871985931568103 -0.876801906659714 0 0 0 0
113100000 -0.02832711692187128 -0.06699214564981701 -0.38922393304975794 -0.8756307577244862 0 0 0 0
113200000 -0.02791861297065622 -0.06739598216037014 -0.39047598043454607 -0.8754107865754062 0 0 0 0
113300000 -0.027647571458101497 -0.06737783303508166 -0.3926391035831377 -0.8738701530362017 0 0 0 0
113400000 -0.027211317866556645 -0.06757123328294766 -0.3949360092449271 -0.8733735193125992 0 0 0 0
113500000 -0.026785326203374114 -0.06759204063876496 -0.39628713292433565 -0.8719894385971443 0 0 0 0
113600000 -0.026488841714650886 -0.06791126275849092 -0.39757607162081426 -0.8718123477021739 0 0 0 0
113700000 -0.026290041582474805 -0.0677336332977769 -0.39984504726422604 -0.8713591439610782 0 0 0 0
113800000 -0.02585243477576135 -0.06790426411951973 -0.4015614399400178 -0.8695526525177303 0 0 0 0
113900000 -0.024852230711864095 -0.06738512673904283 -0.4022646119187085 -0.8687473240431114 0 0 0 0
114000000 -0.02518322890535086 -0.0677350125396565 -0.4052784673566651 -0.8674380989671555 0 0 0 0
114100000 -0.024310350289919066 -0.0679180836891733 -0.4070248699479212 -0.867469818217891 0 0 0 0
114200000 -0.023996820572399467 -0.06737291675942139 -0.4085394983806742 -0.8656017311497525 0 0 0 0
114300000 -0.02348995970295137 -0.06791305321170202 -0.41037032225258835 -0.8654167007738195 0 0 0 0
114400000 -0.023515960175764582 -0.06832458560727597 -0.41239441083092643 -0.8638308699473467 0 0 0 0
114500000 -0.022806476710050136 -0.06805249114993227 -0.4141831071513205 -0.8638659491039171 0 0 0 0
114600000 -0.022298777521257286 -0.06826362107117721 -0.4156916921475597 -0.8623346642059515 0 0 0 0
114700000 -0.02184921022148912 -0.06837936337074237 -0.41761450764754593 -0.8615457365673179 0 0 0 0
114800000 -0.02154713170812752 -0.06850228238710707 -0.4187683990551809 -0.8599959324988958 0 0 0 0
114900000 -0.021268589310376035 -0.06855460671090305 -0.4209530787124063 -0.8595272013464561 0 0 0 0
115000000 -0.02080051641884452 -0.06852665168724754 -0.42256404050350277 -0.8584840553325274 0 0 0 0
115100000 -0.019568846197849668 -0.06860031541261323 -0.42514529700731 -0.8580204716929771 0 0 0 0
115200000 -0.019859473925754732 -0.06871707644256098 -0.4265199060005978 -0.8568865045097165 0 0 0 0
115300000 -0.01971499924644686 -0.06910312455794435 -0.42844155397637257 -0.8554494418560871 0 0 0 0
115400000 -0.019278964024357588 -0.06903178824112287 -0.4299563450925203 -0.8554351301619548 0 0 0 0
115500000 -0.01869973421820644 -0.06935914466500108 -0.43166353600250834 -0.8547930651363218 0 0 0 0
115600000 -0.01821021853027809 -0.0691875307214964 -0.43370517345945026 -0.8532982252402478 0 0 0 0
115700000 -0.017815223280431034 -0.06942994585424295 -0.43580203656222893 -0.8518995726646716 0 0 0 0
115800000 -0.01729459019099677 -0.06950488396263936 -0.4373876276201304 -0.8514429705977532 0 0 0 0
115900000 -0.016680583883009754 -0.06960033918892751 -0.43871278059054186 -0.8513458012142344 0 0 0 0
116000000 -0.01673473002547325 -0.0693465916565293 -0.4405047162965957 -0.8498455568482265 0 0 0 0
116100000 -0.016079913551407986 -0.0701165930805377 -0.4421193971808311 -0.8485678505494415 0 0 0 0
116200000 -0.015730820706595858 -0.06957087963595192 -0.4440367015693445 -0.8470223953718024 0 0 0 0
116300000 -0.015216531408143429 -0.07020929063579874 -0.445545002323642 -0.8465108056518688 0 0 0 0
116400000 -0.014695922612780342 -0.07039878539287248 -0.4469881226969342 -0.8460799057733797 0 0 0 0
116500000 -0.014098826925030656 -0.0703539749977286 -0.4491875826728665 -0.8452453655341093 0 0 0 0
116600000 -0.013797019811562715 -0.07049357361726266 -0.45130968796212656 -0.8443000670145515 0 0 0 0
116700000 -0.013482499191450779 -0.07032265934623765 -0.45254376561201465 -0.8430008900259404 0 0 0 0
116800000 -0.013045320514923896 -0.0710939041080362 -0.4548650070000947 -0.8419327872293791 0 0 0 0
116900000 -0.013000848032535981 -0.07106221610133504 -0.4572010243511394 -0.8403693066055475 0 0 0 0
117000000 -0.011743073789971971 -0.07107012136949381 -0.45858484594322985 -0.8390503244248273 0 0 0 0
117100000 -0.011689982935266673 -0.07098470868406759 -0.4606973750084882 -0.8389503650291984 0 0 0 0
117200000 -0.011585018487883032 -0.07168543022202921 -0.46182578348378345 -0.8376102530228083 0 0 0 0
117300000 -0.010831692521431643 -0.07151777535604745 -0.46357006911918436 -0.8365238156009113 0 0 0 0
117400000 -0.010380946481350213 -0.07148979049878726 -0.4657706132110433 -0.8352703507916674 0 0 0 0
117500000 -0.01008508841356681 -0.0718063363440336 -0.4673934211863789 -0.8346009672024773 0 0 0 0
117600000 -0.009914261779600168 -0.0721119860356888 -0.4688816073484561 -0.833806208604938 0 0 0 0
117700000 -0.008660992372742591 -0.07198414756086162 -0.4704294792043113 -0.8323980305503162 0 0 0 0
117800000 -0.008928073747944847 -0.07265660901755006 -0.47226046985290415 -0.8308241815697693 0 0 0 0
117900000 -0.008484469961552459 -0.0722301499332867 -0.4746596923960458 -0.8302173596853413 0 0 0 0
118000000 -0.007875289447174652 -0.07260641497035607 -0.47573674459377796 -0.8301515507410981 0 0 0 0
118100000 -0.007245016740637607 -0.07285711183965429 -0.47824248405110514 -0.828151012395217 0 0 0 0
118200000 -0.007037955577622216 -0.07299367487090017 -0.4794694176079227 -0.8273183533078327 0 0 0 0
118300000 -0.006867072657911783 -0.07325332611170267 -0.4812512402264967 -0.8264851336765435 0 0 0 0
118400000 -0.006139030196446434 -0.07375628790726303 -0.4826479814626087 -0.8250536878787895 0 0 0 0
118500000 -0.005903583376214805 -0.07360663409588111 -0.4846375213809224 -0.8241366759557542 0 0 0 0
118600000 -0.005003447664908713 -0.07417032006843773 -0.4857680200473896 -0.8233048040261548 0 0 0 0
118700000 -0.004452896953845466 -0.07385033773815036 -0.4881851208122661 -0.8221963855172292 0 0 0 0
118800000 -0.004748378490640047 -0.07432641221768654 -0.4900340207477921 -0.8212794989416384 0 0 0 0
118900000 -0.004028357944002702 -0.07409109726020584 -0.49078567503035114 -0.8201548679807434 0 0 0 0
119000000 -0.0037363223078119142 -0.07453761991848834 -0.4944890317918287 -0.8186466060769491 0 0 0 0
119100000 -0.0030076151655160253 -0.07481400879921905 -0.49500932279537485 -0.8175982243154686 0 0 0 0
119200000 -0.002805818129667879 -0.07493490547718598 -0.4968686779004705 -0.8168677731532766 0 0 0 0
119300000 -0.0022763457826783175 -0.07512957460544566 -0.4983723443337162 -0.8161631810525527 0 0 0 0
119400000 -0.0019490520944400124 -0.07543022228675818 -0.5001543127982866 -0.8139247118755948 0 0 0 0
119500000 -0.0017267712248108867 -0.07574842018107204 -0.5017012210751658 -0.8136454476127241 0 0 0 0
119600000 -0.0009387214089537351 -0.07559453609729695 -0.5033223837860102 -0.8120331481129736 0 0 0 0
119700000 -0.00019098734235984828 -0.07574229052130901 -0.5057843638227257 -0.8109330568414315 0 0 0 0
